! Created Tue Feb 26 13:25:51 2019
# hz S ma R 50
! 4 Port Network Data from SP1.SP block
! freq  magS11  angS11  magS12  angS12  magS13  angS13  magS14  angS14  
!       magS21  angS21  magS22  angS22  magS23  angS23  magS24  angS24  
!       magS31  angS31  magS32  angS32  magS33  angS33  magS34  angS34  
!       magS41  angS41  magS42  angS42  magS43  angS43  magS44  angS44  
!     
                 0      0.0329857471        -20.8853284        0.967547912         -5.4316683      0.00125710879         72.7214251     0.000251601814         166.691693
                      0.967547911        -5.43166831       0.0325305041        -17.8256908     0.000250362453         166.647205      0.00125748167         72.2609177
                    0.00125710749          72.721933     0.000250611819         166.655159       0.0330161355          -20.90408        0.967539248        -5.43429615
                   0.000251655068         166.693393       0.0012573806         72.2768852        0.967539247        -5.43429616       0.0325353541        -17.8620036

          10000000      0.0335719784          -18.08186        0.966690387        -6.69321266      0.00342244881         73.9979455     0.000625271962        -124.365087
                      0.966690386        -6.69321265       0.0326894708        -16.2336398     0.000625231865          -124.3453      0.00344685482         79.2949872
                    0.00342244856         73.9979681     0.000625242695        -124.347142       0.0335783241        -18.1252082        0.966686079         -6.6945642
                   0.000625283651        -124.367078       0.0034468559         79.2957721         0.96668608        -6.69456422       0.0327172496        -16.2776707

          20000000      0.0368252279        -34.6226751        0.965143278        -13.3545977      0.00671002522         66.7508391      0.00105321679        -120.228155
                      0.965143278        -13.3545977       0.0336985014        -31.8640739      0.00105323866        -120.232826      0.00676289355          77.589114
                    0.00670999129         66.7508379      0.00105325325        -120.233694       0.0368441306        -34.6937394        0.965139483         -13.357421
                    0.00105324118        -120.229498       0.0067629113          77.589628        0.965139483        -13.3574211       0.0337322089        -31.9437946

          30000000      0.0412122365        -48.9120918        0.963512917        -20.0075035      0.00991380564         58.4027912      0.00149192642        -119.309284
                      0.963512917        -20.0075034       0.0347039462        -47.0950918      0.00149193924        -119.323675       0.0100048131          74.902392
                    0.00991380268         58.4027927      0.00149194015        -119.324433       0.0412488237        -48.9982249        0.963508949        -20.0117804
                    0.00149193049        -119.310066       0.0100048314         74.9025973        0.963508949        -20.0117804       0.0347473277        -47.2026548

          40000000      0.0466087861        -61.1964746        0.961551397        -26.6458444       0.0130011136         49.8331195      0.00196578408        -119.793867
                      0.961551397        -26.6458444       0.0359886677        -62.0786954      0.00196557577        -119.816658       0.0131256769         72.1295398
                     0.0130011116         49.8331394      0.00196558056        -119.817182       0.0466645113        -61.2876119        0.961547086        -26.6515619
                    0.00196578592        -119.794334       0.0131256872         72.1296719        0.961547086         -26.651562       0.0360434229         -62.203562

          50000000      0.0527524114        -71.8259051        0.959267324        -33.2683319       0.0158974588         40.9027428      0.00248375768        -121.739312
                      0.959267324        -33.2683319       0.0376221373        -76.7524204      0.00248320386           -121.765       0.0160790088         69.0944893
                     0.0158974589         40.9027601      0.00248320369        -121.765318       0.0528259652        -71.9158814        0.959262697        -33.2754917
                    0.00248375699        -121.739586       0.0160790183         69.0945574        0.959262697        -33.2754917       0.0376879468        -76.8826646

          60000000      0.0592872718        -81.3150507        0.956731731        -39.8751701       0.0186052182         31.8616301      0.00306253477         -124.64675
                      0.956731731        -39.8751701       0.0395330066        -91.3234509       0.0030615845        -124.671739       0.0188578762         66.1241144
                     0.0186052184         31.8616315      0.00306158254        -124.671813       0.0593767123        -81.4009951        0.956726745        -39.8837617
                    0.00306253359        -124.646903       0.0188578802         66.1241283        0.956726745        -39.8837617       0.0396104245        -91.4488114

          70000000      0.0661284846        -89.9042154        0.953949861        -46.4658744       0.0210637301         22.4525171      0.00370164285        -128.814169
                      0.953949861        -46.4658744       0.0418701871        -105.554432      0.00370025078        -128.837381       0.0214715441         62.9917183
                     0.0210637302         22.4525099      0.00370025134        -128.837342       0.0662302569         -89.984837        0.953943551        -46.4758729
                    0.00370164252        -128.814154        0.021471544         62.9917153        0.953943551        -46.4758729       0.0419646804         -105.66981

          80000000      0.0730644517         -97.812538        0.950959659        -53.0374884       0.0232792302         12.9162047      0.00440401996        -133.775818
                      0.950959659        -53.0374884       0.0446140033        -119.384067       0.0044021652        -133.796554       0.0239021864          59.995413
                     0.0232792298         12.9162055       0.0044021654        -133.796526        0.073175241        -97.8873481        0.950951565        -53.0488837
                    0.00440401996        -133.775804       0.0239021858         59.9954116        0.950951565        -53.0488837       0.0447236051        -119.484548

          90000000      0.0799269398        -105.388452        0.947837048        -59.5941582       0.0252495891         3.25072536      0.00516905649         -139.42297
                      0.947837048        -59.5941582       0.0477536241        -132.943559      0.00516678987        -139.440906       0.0261577867         57.1396993
                     0.0252495891         3.25072717      0.00516679024        -139.440908       0.0800434036        -105.457091        0.947827407        -59.6069161
                     0.0051690567        -139.422972       0.0261577857         57.1397005        0.947827407        -59.6069161       0.0478729781        -133.025662

         100000000      0.0866297636        -112.576727        0.944570859        -66.1302003       0.0269609244         -6.5739473      0.00598611232        -145.666418
                      0.944570859        -66.1302003       0.0513198491        -145.948016      0.00598355435        -145.681607       0.0282327077         54.4570782
                     0.0269609247        -6.57394889      0.00598355409          -145.6816       0.0867483045        -112.639211        0.944560121        -66.1442648
                    0.00598611205        -145.666411       0.0282327079         54.4570766        0.944560121        -66.1442648       0.0514420089        -146.011002

         110000000      0.0930787169        -119.528503        0.941218069          -72.64151        0.028404626         -16.580568      0.00684293156        -152.405904
                      0.941218069          -72.64151       0.0552302955        -158.329195       0.0068401494        -152.419212       0.0301294642         51.9627226
                     0.0284046253        -16.5805774       0.0068401481        -152.419176       0.0931952044        -119.585045        0.941206252        -72.6568684
                    0.00684293144        -152.405856       0.0301294657         51.9627172        0.941206252        -72.6568684       0.0553506271        -158.375279

         120000000      0.0991401311        -126.334479        0.937828002         -79.138897       0.0296102772        -26.7934768      0.00773412136        -159.565541
                      0.937828002         -79.138897       0.0594833783        -170.299314      0.00773128741        -159.577185       0.0318794823         49.6424736
                     0.0296102733        -26.7934951      0.00773128564        -159.577115       0.0992504162        -126.385126        0.937815545        -79.1555186
                    0.00773412312        -159.565431       0.0318794854         49.6424636        0.937815545        -79.1555186       0.0595964016        -170.330681

         130000000        0.10466344        -133.030046        0.934422102        -85.6201249       0.0305923645        -37.2490852      0.00864766925        -167.057777
                      0.934422102        -85.6201249       0.0640407656         178.237141      0.00864498005         -167.06822       0.0334974559         47.5130768
                     0.0305923553        -37.2491109      0.00864497906        -167.068116        0.104763266        -133.074942        0.934409573        -85.6379851
                    0.00864767625        -167.057594       0.0334974606         47.5130622        0.934409573        -85.6379852       0.0641411029         178.217557

         140000000        0.10964403        -139.592674         0.93102941        -92.0776874       0.0313680179        -47.9776558      0.00956600221         -174.81065
                       0.93102941        -92.0776874       0.0686805434         167.348789      0.00956367413        -174.820461       0.0349916892         45.5834155
                     0.0313680018         -47.977686      0.00956367537         -174.82033        0.109729048        -139.632034        0.931017454        -92.0967702
                    0.00956601897        -174.810391       0.0349916952         45.5833967        0.931017454        -92.0967702       0.0687629357         167.337812

         150000000       0.114029635        -146.112414        0.927678047        -98.5203919       0.0319787695        -58.9936972       0.0104813517          177.23566
                      0.927678047        -98.5203919       0.0734461213          156.92432       0.0104796082         177.225789       0.0363938894         43.8257304
                     0.0319787459        -58.9937285        0.010479613         177.225941         0.11409546        -146.146429        0.927667381        -98.5406903
                     0.0104813831         177.235988       0.0363938969          43.825708         0.92766738        -98.5406904       0.0735057898         156.919205

         160000000       0.117686494         -152.58876        0.924394697        -104.949705        0.032466501        -70.3348885       0.0113810309         169.122763
                      0.924394697        -104.949705       0.0782551099         146.927305       0.0113801014           169.1121        0.037728158         42.2439069
                       0.03246647        -70.3349177       0.0113801106         169.112265        0.117728718         -152.61767        0.924386093        -104.971222
                     0.0113810816         169.123145       0.0377281673         42.2438813        0.924386093        -104.971222       0.0782876384         146.925725

         170000000       0.120540265         -159.01958         0.92123229        -111.357727       0.0328714643        -82.0246198       0.0122466129         160.908632
                       0.92123229        -111.357727       0.0828271224         137.371665       0.0122467119         160.896405       0.0390055541         40.8462213
                     0.0328714268        -82.0246444       0.0122467261         160.896576        0.120554854        -159.043678        0.921226467        -111.380478
                     0.0122466865         160.909052       0.0390055655         40.8461923        0.921226466        -111.380478       0.0828287404         137.371571

         180000000       0.122652252         -165.43829        0.918179331        -117.755083       0.0332387094        -94.0514099       0.0130733521          152.62233
                      0.918179331        -117.755083       0.0872743578         128.168182       0.0130746983         152.607713       0.0402584365         39.5950679
                     0.0332386668        -94.0514282       0.0130747175         152.607884        0.122634713        -165.457859        0.918177041        -117.779092
                     0.0130734508         152.622771       0.0402584501         39.5950349         0.91817704        -117.779092       0.0872412099         128.168107

         190000000       0.123894284        -171.876532        0.915263833        -124.141755       0.0335525585        -106.295523       0.0138490188         144.317382
                      0.915263834        -124.141755       0.0914481544          119.32683       0.0138517907         144.299506       0.0415146251         38.4889763
                     0.0335525123        -106.295534       0.0138518149         144.299672        0.123840706        -171.891953        0.915265717        -124.167057
                     0.0138491432         144.317825       0.0415146406         38.4889386        0.915265716        -124.167057       0.0913771988         119.325673

         200000000       0.124206671        -178.304413        0.912533938        -130.514277       0.0342774594        -118.699408       0.0145676826         136.011029
                      0.912533938        -130.514277       0.0951243859         110.784642       0.0145720396         135.989027       0.0427901528           37.52834
                     0.0342774112        -118.699412       0.0145720683         135.989185        0.124113395        -178.316071        0.912540512        -130.540919
                     0.0145678315         136.011459       0.0427901693          37.528297        0.912540511        -130.540919       0.0950128981         110.781534

         210000000       0.123675806         175.236819        0.909960611        -136.879273       0.0349962439        -131.642214       0.0152157849         127.720257
                      0.909960611        -136.879273       0.0983975457         102.537617       0.0152218226         127.693127       0.0441156258         36.6697051
                     0.0349961951        -131.642212        0.015221855         127.693273        0.123539471         175.228378        0.909972238        -136.907309
                     0.0152159554          127.72066       0.0441156419         36.6696567        0.909972236        -136.907309       0.0982431972          102.53208

         220000000       0.122241691          168.72133        0.907550047        -143.239253       0.0358996023        -144.637723       0.0157919909         119.496933
                      0.907550048        -143.239253        0.101164452         94.5822382         0.01579976          119.46364       0.0455232573         35.8956614
                     0.0358995543        -144.637716       0.0157997951         119.463772        0.122059167          168.71547        0.907566959        -143.268743
                     0.0157921788         119.497298       0.0455232715         35.8956084        0.907566957        -143.268743         0.10096525         94.5741213

         230000000       0.119804826         162.160068        0.905354794        -149.590404       0.0370557817        -157.660229        0.016282789         111.375311
                      0.905354795        -149.590404        0.103168921         86.8652007       0.0162922748         111.334778       0.0470319698         35.1998467
                     0.0370557357        -157.660218       0.0162923117         111.334894         0.11957352         162.156107        0.905376998        -149.621415
                     0.0162829886         111.375629       0.0470319801         35.1997908        0.905376996        -149.621415        0.102923415          86.854413

         240000000       0.116587328         155.535001         0.90330328        -155.940678       0.0384678448        -170.602797       0.0166975798          103.36259
                      0.903303281        -155.940678        0.104624769         79.3852822       0.0167086789          103.31364       0.0486604699         34.5199415
                     0.0384678019        -170.602782       0.0167087163         103.313739        0.116305161         155.531896        0.903330618        -155.973274
                     0.0166977847         103.362855       0.0486604752         34.5198851        0.903330616        -155.973274        0.104331903           79.37217

         250000000       0.112394487         148.756338        0.901432272        -162.289902       0.0401678072         176.616775       0.0170324006         95.5180384
                      0.901432273        -162.289902        0.105275905          72.198785       0.0170449266         95.4594683       0.0504485241         33.8342396
                     0.0401677682         176.616791       0.0170449633         95.4595504        0.112059709         148.752746        0.901464343        -162.324153
                     0.0170326037         95.5182481       0.0504485237         33.8341854        0.901464341        -162.324153        0.104934992         72.1840121

         260000000       0.107364296         141.863914        0.899721884        -168.638795       0.0421307221         164.062193       0.0172860143         87.8524596
                      0.899721885        -168.638795        0.105149603         65.2266132       0.0172996656         87.7830352       0.0523907309         33.1093497
                     0.0421306878         164.062209       0.0172997003         87.7831003        0.106976097         141.858106        0.899758077        -168.674763
                     0.0172862085          87.852614        0.052390725         33.1093006        0.899758075        -168.674763        0.104760647          65.210958

         270000000       0.101620839         134.845109        0.898134161        -174.989181       0.0443192972         151.780907       0.0174681305         80.3855544
                      0.898134161        -174.989181        0.104315313         58.4699183       0.0174824775         80.3040721       0.0544848649         32.3050655
                      0.044319268         151.780923       0.0174825091          80.304121         0.10117932         134.834689        0.898173668        -175.026922
                     0.0174683086         80.3856564       0.0544848544         32.3050235        0.898173667        -175.026922        0.103878962         58.4545497

         280000000       0.094941377         127.457824        0.896698361         178.655899       0.0467450917         139.814358       0.0175860527         73.2047018
                      0.896698361         178.655899        0.102480828           52.07736       0.0176005636         73.1100294       0.0567723253         31.3874137
                     0.0467450681         139.814372       0.0176005909         73.1100634       0.0944467924         127.438799        0.896740153         178.616331
                     0.0175862082          73.204757       0.0567723122         31.3873802        0.896740151         178.616331         0.10199798         52.0642943

