! Created Tue Feb 26 13:35:42 2019
# hz S ma R 50
! 4 Port Network Data from SP1.SP block
! freq  magS11  angS11  magS12  angS12  magS13  angS13  magS14  angS14  
!       magS21  angS21  magS22  angS22  magS23  angS23  magS24  angS24  
!       magS31  angS31  magS32  angS32  magS33  angS33  magS34  angS34  
!       magS41  angS41  magS42  angS42  magS43  angS43  magS44  angS44  
!     
                 0      0.0247825803        -24.2914988    7.25032917e-006         -160.87516        0.001256335         72.6608983    9.41834548e-006        -168.550859
                  7.25026521e-006        -160.874942       0.0325305041        -17.8256908    5.84139087e-006        -157.875489      0.00125748167         72.2609177
                    0.00125635671         72.6521902    5.84136472e-006        -157.875388       0.0247928621        -24.2899445    1.05985206e-005        -152.930699
                  9.41811045e-006        -168.550448       0.0012573806         72.2768852    1.05985045e-005        -152.930646       0.0325353541        -17.8620036

          10000000      0.0248137675        -20.3526525    9.58982574e-005        -105.766403      0.00343370653         75.6367254     0.000118948681        -106.737698
                   9.5898249e-005        -105.766402       0.0326894708        -16.2336398    7.68495054e-005        -105.495629      0.00344685482         79.2949872
                    0.00343370652         75.6367269    7.68495102e-005        -105.495629       0.0248255719        -20.3614009    9.91969489e-005        -106.784591
                   0.000118948686        -106.737698       0.0034468559         79.2957721    9.91969527e-005        -106.784591       0.0327172496        -16.2776707

          20000000      0.0277894502         -38.400386     0.000183478072        -109.434189       0.0066782319         68.0291289     0.000225976316        -109.855909
                   0.000183478059        -109.434187       0.0336985014        -31.8640739     0.000147360251        -109.294321      0.00676289355          77.589114
                    0.00667825318         68.0292419     0.000147360255        -109.294321       0.0278024415        -38.4179504     0.000189616392        -109.828955
                   0.000225976319        -109.855909       0.0067629113          77.589628     0.000189616399        -109.828956       0.0337322089        -31.9437946

          30000000      0.0321486496        -53.2481895     0.000270193601        -114.739282      0.00981507091         59.4183426     0.000332165525        -114.769961
                   0.000270193585         -114.73928       0.0347039462        -47.0950918     0.000217184855        -114.696033       0.0100048131          74.902392
                     0.0098150827         59.4183683     0.000217184864        -114.696034       0.0321627065        -53.2734225     0.000279366836        -114.882957
                   0.000332165535        -114.769962       0.0100048314         74.9025973     0.000279366843        -114.882958       0.0347473277        -47.2026548

          40000000      0.0374454632        -65.3614559     0.000356824238        -120.543737       0.0128163987         50.4871209     0.000438754423        -120.259244
                   0.000356824226        -120.543735       0.0359886677        -62.0786954     0.000286917134        -120.581842       0.0131256769         72.1295398
                     0.0128164002         50.4871654      0.00028691714        -120.581844       0.0374604182         -65.393579     0.000369227458        -120.542402
                    0.00043875443        -120.259245       0.0131256872         72.1296719     0.000369227465        -120.542402       0.0360434229         -62.203562

          50000000       0.043378216        -75.4484946     0.000443859688        -126.596807        0.015651178          41.384621     0.000546529143        -126.052375
                   0.000443859683        -126.596806       0.0376221373        -76.7524204     0.000356930766        -126.707375       0.0160790088         69.0944893
                     0.0156511792         41.3846217     0.000356930768        -126.707376       0.0433935644         -75.486837     0.000459708876        -126.501387
                   0.000546529146        -126.052375       0.0160790183         69.0945574     0.000459708878        -126.501387       0.0376879468        -76.8826646

          60000000      0.0496533811        -84.2786934     0.000531758737        -132.820095       0.0182934506         32.1544049     0.000656194683        -132.064693
                   0.000531758738        -132.820095       0.0395330066        -91.3234509     0.000427573228        -132.996521       0.0188578762         66.1241144
                     0.0182934508         32.1544079     0.000427573227        -132.996521       0.0496682976        -84.3228501     0.000551282325        -132.662252
                   0.000656194682        -132.064694       0.0188578802         66.1241283     0.000551282324        -132.662252       0.0396104245        -91.4488114

          70000000      0.0561654038        -92.1409144     0.000620705581        -139.177783       0.0207155158          22.793379     0.000768025416        -138.257548
                   0.000620705581        -139.177783       0.0418701871        -105.554432     0.000498983492        -139.414087       0.0214715441         62.9917183
                     0.0207155165         22.7933796     0.000498983492        -139.414087       0.0561785597        -92.1906522     0.000644148117        -138.978986
                   0.000768025415        -138.257548        0.021471544         62.9917153     0.000644148118        -138.978986       0.0419646804         -105.66981

          80000000       0.062778722        -99.3423106     0.000710802618        -145.652989       0.0228988583         13.3006079     0.000882132735        -144.612268
                   0.000710802616         -145.65299       0.0446140033        -119.384067     0.000571236504        -145.943831       0.0239021864          59.995413
                     0.0228988581          13.300609     0.000571236505        -145.943831       0.0627889611        -99.3972595     0.000738392025        -145.431199
                   0.000882132735        -144.612268       0.0239021858         59.9954116     0.000738392025        -145.431199       0.0447236051        -119.484548

          90000000      0.0693265574        -106.247141     0.000802222577        -152.252053       0.0248417578          3.6730459     0.000998726574        -151.134141
                   0.000802222577        -152.252053       0.0477536241        -132.943559     0.000644455942        -152.591743       0.0261577867         57.1396993
                     0.0248417581          3.6730448     0.000644455941        -152.591743       0.0693328857        -106.306917     0.000834164689        -152.022301
                   0.000998726574        -151.134141       0.0261577857         57.1397005      0.00083416469        -152.022301       0.0478729781        -133.025662

         100000000      0.0757641367         -112.80641     0.000894644987        -158.955651       0.0265292362        -6.11815252      0.00111725379        -157.798857
                   0.000894644987        -158.955651       0.0513198491        -145.948016     0.000718389841        -159.339212       0.0282327077         54.4570782
                     0.0265292364        -6.11815239     0.000718389841        -159.339212       0.0757656048         -112.87064     0.000931084775        -158.730849
                    0.00111725379        -157.798857       0.0282327079         54.4570766     0.000931084775        -158.730849       0.0514420089        -146.011002

         110000000      0.0820006116        -119.142933     0.000987835076        -165.755634       0.0279545964        -16.0906774      0.00123727401        -164.594773
                   0.000987835066        -165.755633       0.0552302955        -158.329195      0.00079285044         -166.17812       0.0301294642         51.9627226
                     0.0279545965        -16.0906725     0.000792850246        -166.178126       0.0819960001        -119.211914      0.00102885866        -165.546554
                    0.00123727402        -164.594773       0.0301294657         51.9627172      0.00102885866        -165.546554       0.0553506271        -158.375279

         120000000      0.0879287301        -125.382828      0.00108159113        -172.660905       0.0291438859        -26.2735147      0.00135843639        -171.526911
                     0.0010815911        -172.660903       0.0594833783        -170.299314     0.000867669203        -173.116973       0.0318794823         49.6424736
                     0.0291438873        -26.2735057     0.000867669349        -173.116967       0.0879171627        -125.456097      0.00112723066        -172.475142
                     0.0013584364        -171.526911       0.0318794854         49.6424636      0.00112723066        -172.475143       0.0595964016        -170.330681

         130000000      0.0934041707        -131.529412      0.00117547327        -179.658423         0.03011115        -36.7047519       0.0014800073        -178.577295
                    0.00117547325        -179.658418       0.0640407656         178.237141     0.000942502562         179.857007       0.0334974559         47.5130768
                     0.0301111534        -36.7047402      0.00094250268         179.857006       0.0933848166        -131.606664      0.00122568395        -179.501668
                    0.00148000732        -178.577296       0.0334974606         47.5130622      0.00122568396         -179.50167       0.0641411029         178.217557

         140000000      0.0984346126        -137.574704      0.00126873109         173.277435       0.0308724265        -47.4119462      0.00160077229         174.284847
                    0.00126873113         173.277443       0.0686805434         167.348789      0.00101677297         172.768792       0.0349916892         45.5834155
                     0.0308724323        -47.4119335      0.00101677307         172.768789       0.0984065819        -137.655639      0.00132338952          173.40103
                     0.0016007723         174.284845       0.0349916952         45.5833967      0.00132338949         173.401026       0.0687629357         167.337812

         150000000       0.102979622        -143.590084      0.00136103396         166.146791       0.0314712299         -58.409186       0.0017202187         167.063306
                    0.00136103408           166.1468       0.0734461213          156.92432      0.00109021823         165.618411       0.0363938894         43.8257304
                     0.0314712379        -58.4091736      0.00109021831         165.618408        0.102942205        -143.674537      0.00141997359         166.234861
                    0.00172021872         167.063303       0.0363938969          43.825708      0.00141997348         166.234856       0.0735057898         156.919205

         160000000       0.106900492        -149.585813       0.0014518245         158.963691       0.0319529687        -69.7341214      0.00183745333         159.776533
                    0.00145182473           158.9637       0.0782551099         146.927305      0.00116240518         158.419593        0.037728158         42.2439069
                     0.0319529787        -69.7341102      0.00116240525         158.419589        0.106853001        -149.673611      0.00151480879         159.015362
                    0.00183745333         159.776529       0.0377281673         42.2438813      0.00151480858         159.015357       0.0782876384         146.925725

         170000000       0.110140107         -155.53966      0.00154037929          151.75642       0.0323626879        -81.4221181      0.00195129225         152.456646
                    0.00154037961         151.756427       0.0828271224         137.371665      0.00123278399         151.200225       0.0390055541         40.8462213
                     0.0323626994        -81.4221087      0.00123278404          151.20022        0.110081969        -155.630637      0.00160709826          151.77185
                    0.00195129224         152.456641       0.0390055655         40.8461923      0.00160709794         151.771848       0.0828287404         137.371571

         180000000       0.112743363        -161.498485      0.00162641291         144.527181       0.0327508004        -93.4644991      0.00206132194         145.108893
                    0.00162641332         144.527186       0.0872743578         128.168182      0.00130113311         143.962196       0.0402584365         39.5950679
                     0.0327508128        -93.4644917      0.00130113314         143.962191        0.112674134        -161.592483      0.00169653936         144.507712
                    0.00206132192         145.108887       0.0402584501         39.5950349      0.00169653896         144.507714       0.0872412099         128.168107

         190000000       0.114593225        -167.479098       0.0017094962         137.294275       0.0331743573        -105.846205       0.0021668323         137.755629
                    0.00170949666         137.294279       0.0914481544          119.32683      0.00136713029         136.723433       0.0415146251         38.4889763
                     0.0331743703          -105.8462       0.0013671303         136.723429        0.114512639         -167.57597      0.00178265769         137.242402
                    0.00216683224         137.755622       0.0415146406         38.4889386      0.00178265725         137.242408       0.0913771988         119.325673

         200000000       0.115612472        -173.451432      0.00178909389         130.081034       0.0336942313        -118.532473       0.0022669025         130.423305
                    0.00178909438         130.081036       0.0951243859         110.784642      0.00143038271         129.506989       0.0427901528           37.52834
                     0.0336942443        -118.532469      0.00143038271         129.506984        0.115520477        -173.551019      0.00186486967         130.000113
                    0.00226690241         130.423297       0.0427901693          37.528297      0.00186486927         130.000123       0.0950128981         110.781534

         210000000       0.115902761        -179.453724      0.00186520862         122.892353       0.0343652765        -131.434569      0.00236155644         123.119475
                    0.00186520913         122.892352       0.0983975457         102.537617      0.00149089972         122.317226       0.0441156258         36.6697051
                     0.0343652892        -131.434567      0.00149089971         122.317221        0.115799511        -179.555908      0.00194319776         122.786464
                    0.00236155632         123.119467       0.0441156419         36.6696567      0.00194319742         122.786477       0.0982431972          102.53208

         220000000       0.115370608         174.489726      0.00193769263         115.743295       0.0352445314        -144.473138      0.00245050589         115.863627
                    0.00193769314         115.743293        0.101164452         94.5822382      0.00154858756         115.168621       0.0455232573         35.8956614
                     0.0352445434        -144.473137      0.00154858753         115.168617        0.115256451         174.385021      0.00201748669         115.617537
                    0.00245050572         115.863619       0.0455232715         35.8956084      0.00201748645         115.617551         0.10096525         94.5741213

         230000000       0.113928871         168.405292      0.00200634129         108.656008       0.0363762459        -157.561815      0.00253329312         108.681529
                    0.00200634178         108.656006        0.103168921         86.8652007      0.00160332288         108.082906       0.0470319698         35.1998467
                     0.0363762572        -157.561815      0.00160332284         108.082902        0.113804347          168.29815      0.00208751592         108.516379
                    0.00253329291          108.68152       0.0470319801         35.1997908      0.00208751578         108.516393        0.102923415          86.854413

         240000000       0.111772866         162.267353      0.00207148443         101.626061       0.0377635811        -170.575402      0.00261049737         101.570362
                    0.00207148488         101.626058        0.104624769         79.3852822      0.00165536524         101.055021       0.0486604699         34.5199415
                     0.0377635914        -170.575403      0.00165536518         101.055018        0.111638681         162.157803      0.00215368566         101.478856
                    0.00261049714         101.570354       0.0486604752         34.5198851      0.00215368561          101.47887        0.104331903           79.37217

         250000000       0.108696677         156.004213      0.00213339278         94.6753071       0.0394390409          176.57524      0.00268242918         94.5596596
                     0.0021333932          94.675303        0.105275905          72.198785      0.00170496151         94.1055818       0.0504485241         33.8342396
                       0.03943905         176.575239      0.00170496144         94.1055789         0.10855366         155.892217      0.00221629411         94.5281098
                    0.00268242892         94.5596523       0.0504485237         33.8341854      0.00221629412         94.5281218        0.104934992         72.1840121

         260000000       0.104820508         149.663571      0.00219225081         87.8065486       0.0413774814         163.959007      0.00274935327         87.6529839
                    0.00219225118         87.8065443        0.105149603         65.2266132      0.00175227407         87.2370825       0.0523907309         33.1093497
                     0.0413774893         163.959006        0.001752274         87.2370802        0.104669733         149.549137      0.00227558005         87.6671822
                    0.00274935301         87.6529775        0.052390725         33.1093006      0.00227558011         87.6671924        0.104760647          65.210958

         270000000       0.100272821         143.236413      0.00224853594         81.0191041        0.043541931         151.624927      0.00281205899         80.8513347
                    0.00224853625         81.0190999        0.104315313         58.4699183      0.00179768115         80.4481647       0.0544848649         32.3050655
                     0.0435419376         151.624925      0.00179768108         80.4481631          0.1001154         143.119466      0.00233210829         80.8954332
                    0.00281205873         80.8513294       0.0544848544         32.3050235      0.00233210838         80.8954416        0.103878962         58.4545497

         280000000      0.0947492747         136.527934      0.00230316668         74.3343017       0.0459437539         139.617456      0.00287193714         74.1874992
                    0.00230316693         74.3342979        0.102480828           52.07736      0.00184193279         73.7578491       0.0567723253         31.3874137
                     0.0459437592         139.617454      0.00184193273          73.757848       0.0945864603         136.408223      0.00238689002          74.235512
                     0.0028719369          74.187495       0.0567723122         31.3873802      0.00238689012         74.2355186         0.10199798         52.0642943

