! Created Tue Feb 26 13:39:32 2019
# hz S ma R 50
! 4 Port Network Data from SP1.SP block
! freq  magS11  angS11  magS12  angS12  magS13  angS13  magS14  angS14  
!       magS21  angS21  magS22  angS22  magS23  angS23  magS24  angS24  
!       magS31  angS31  magS32  angS32  magS33  angS33  magS34  angS34  
!       magS41  angS41  magS42  angS42  magS43  angS43  magS44  angS44  
!     
                 0     0.00939067338   -3.08603402e-013    2.73782683e-008         0.53737417     0.000174657242   -2.22522225e-011    1.93079594e-008        0.489495571
                  2.73995438e-008        0.537130776       0.0325305041        -17.8256908    4.28347987e-008        0.537644086      0.00125748167         72.2609177
                    0.00017193761   -2.26038309e-011    4.28655355e-008        0.537188744      0.00936846293   -5.61370147e-013    3.09681777e-008        0.490975556
                  1.93196517e-008        0.489448803       0.0012573806         72.2768852    3.09389533e-008        0.491594704       0.0325353541        -17.8620036

          10000000      0.0103031747          5.2561897    4.18378342e-007         76.7681237      0.00129647443          77.443508    3.48482251e-007         77.6021669
                  4.18378306e-007         76.7681237       0.0326894708        -16.2336398    5.79221545e-007         76.7705604      0.00344685482         79.2949872
                    0.00129647444         77.4435075    5.79221566e-007         76.7705593       0.0102976254         5.47983946    4.71151908e-007         77.4823751
                  3.48482277e-007         77.6021661       0.0034468559         79.2957721    4.71151892e-007         77.4823718       0.0327172496        -16.2776707

          20000000      0.0110652353         8.81955283    7.81897568e-007          78.156119      0.00261902876          79.488294    6.53606947e-007         78.6741152
                  7.81897515e-007         78.1561221       0.0336985014        -31.8640739    1.08355617e-006         78.1948366      0.00676289355          77.589114
                    0.00261901778         79.4891337    1.08355618e-006          78.194835       0.0110678685         9.28728913    8.83803397e-007         78.6259849
                  6.53606947e-007          78.674116       0.0067629113          77.589628    8.83803446e-007         78.6259864       0.0337322089        -31.9437946

          30000000      0.0116585402         12.6905695    1.13812397e-006         77.9646908      0.00396087713         79.5794418    9.52704973e-007         78.3420178
                  1.13812393e-006         77.9646897       0.0347039462        -47.0950918    1.57847117e-006         77.9941001       0.0100048131          74.902392
                    0.00396088067         79.5792827    1.57847123e-006         77.9941004       0.0116821496         13.3612252    1.28876792e-006         78.3079481
                   9.5270499e-007          78.342016       0.0100048314         74.9025973    1.28876793e-006         78.3079466       0.0347473277        -47.2026548

          40000000       0.012321294         16.1047075    1.49211984e-006         77.2551725      0.00530672004         79.4860385    1.24994987e-006         77.5465378
                  1.49211989e-006         77.2551758       0.0359886677        -62.0786954    2.07056664e-006         77.2580563       0.0131256769         72.1295398
                    0.00530671987          79.486016    2.07056652e-006         77.2580578       0.0123723839         16.9336918    1.69145406e-006         77.5049759
                  1.24994994e-006         77.5465365       0.0131256872         72.1296719    1.69145416e-006         77.5049709       0.0360434229         -62.203562

          50000000      0.0130750853         18.9971348    1.84683759e-006         76.2728196      0.00662638467         78.6316432    1.54778988e-006         76.5037221
                  1.84683763e-006         76.2728204       0.0376221373        -76.7524204    2.56367112e-006         76.2425289       0.0160790088         69.0944893
                    0.00662638328         78.6316189    2.56367112e-006         76.2425311       0.0131583368          19.946983     2.0950159e-006         76.4452514
                  1.54778991e-006         76.5037204       0.0160790183         69.0945574    2.09501588e-006         76.4452483       0.0376879468        -76.8826646

          60000000      0.0138815586         21.4951354    2.20452009e-006         75.1008449      0.00793632303         77.7099635    1.84810383e-006         75.2854554
                  2.20452007e-006         75.1008454       0.0395330066        -91.3234509     3.0606968e-006         75.0364788       0.0188578762         66.1241144
                    0.00793632202         77.7099484    3.06069674e-006         75.0364775       0.0140007427          22.535574    2.50188267e-006         75.2067695
                  1.84810383e-006         75.2854555       0.0188578802         66.1241283    2.50188273e-006         75.2067693       0.0396104245        -91.4488114

          70000000      0.0147527745         23.4088876    2.56604333e-006         73.7792755      0.00923727537         76.0937226    2.15161632e-006         73.9268913
                  2.56604339e-006         73.7792749       0.0418701871        -105.554432    3.56282725e-006         73.6823465       0.0214715441         62.9917183
                    0.00923727568         76.0937146    3.56282733e-006         73.6823445       0.0149096257         24.5179741    2.91302565e-006         73.8272003
                  2.15161632e-006         73.9268907        0.021471544         62.9917153    2.91302574e-006         73.8272022       0.0419646804         -105.66981

          80000000      0.0156591443         25.0242526    2.93204295e-006         72.3253265       0.0105349734         74.4495384    2.45887574e-006          72.441772
                  2.93204339e-006         72.3253246       0.0446140033        -119.384067    4.07088732e-006         72.1990451       0.0239021864          59.995413
                     0.0105349701         74.4495412     4.0708874e-006         72.1990449       0.0158559677         26.1827427    3.32915577e-006         72.3220978
                  2.45887538e-006         72.4417742       0.0239021858         59.9954116    3.32915578e-006         72.3220985       0.0447236051        -119.484548

          90000000      0.0166021554         26.2142168     3.3031192e-006         70.7454131       0.0118288406         72.7882228     2.7703775e-006         70.8343065
                  3.30311919e-006         70.7454127       0.0477536241        -132.943559    4.58570189e-006         70.5938452       0.0261577867         57.1396993
                     0.0118288414          72.788226    4.58570188e-006         70.5938456       0.0168398281         27.4089631    3.75095469e-006         70.6963245
                  2.77037748e-006         70.8343068       0.0261577857         57.1397005    3.75095469e-006         70.6963245       0.0478729781        -133.025662

         100000000      0.0175682235         27.1884655    3.67845426e-006          69.052947       0.0131194347         71.1135867    3.08543382e-006         69.1168812
                  3.67845425e-006          69.052947       0.0513198491        -145.948016    5.10619803e-006         68.8802483       0.0282327077         54.4570782
                     0.0131194343          71.113594    5.10619802e-006         68.8802483       0.0178481744         28.4079267    4.17751579e-006         68.9626434
                  3.08543381e-006         69.1168812       0.0282327079         54.4570766     4.1775158e-006         68.9626434       0.0514420089        -146.011002

         110000000      0.0185453042         27.7971813    4.05722574e-006         67.2576088       0.0144049601         69.4257899    3.40335269e-006         67.2986214
                  4.05722603e-006         67.2576126       0.0552302955        -158.329195    5.63132406e-006         67.0679064       0.0301294642         51.9627226
                     0.0144049557         69.4258062    5.63132322e-006         67.0678983       0.0188674701         29.0367755    4.60795579e-006         67.1301831
                   3.4033529e-006          67.298617       0.0301294657         51.9627172    4.60795606e-006         67.1301815       0.0553506271        -158.375279

         120000000      0.0195370167         28.2536016    4.43884883e-006         65.3601586       0.0156871905         67.7307304    3.72361381e-006         65.3793277
                  4.43884988e-006         65.3601666       0.0594833783        -170.299314    6.16034308e-006         65.1575986       0.0318794823         49.6424736
                     0.0156871819         67.7307602    6.16033922e-006          65.157582       0.0199022849         29.5065356    5.04161385e-006         65.1988559
                  3.72361421e-006         65.3793133       0.0318794854         49.6424636     5.0416146e-006         65.1988476       0.0595964016        -170.330681

         130000000      0.0205338944         28.4607891      4.821916e-006         63.3726013       0.0169655262         66.0317844    4.04502252e-006         63.3706999
                  4.82191832e-006         63.3726112       0.0640407656         178.237141    6.69141891e-006         63.1608672       0.0334974559         47.5130768
                     0.0169655139         66.0318297    6.69140921e-006         63.1608537       0.0209420908         29.7245225    5.47693488e-006           63.18013
                  4.04502285e-006         63.3706711       0.0334974606         47.5130622    5.47693601e-006         63.1801088       0.0641411029         178.217557

         140000000      0.0215398936         28.5584445    5.20388104e-006         61.3072314       0.0182404856         64.3285252    4.36541919e-006         61.2852261
                  5.20388504e-006         61.3072389       0.0686805434         167.348789    7.22120649e-006         61.0893293       0.0349916892         45.5834155
                      0.018240471         64.3285857    7.22118844e-006         61.0893401       0.0219916269         29.8287046    5.91109054e-006          61.086122
                  4.36541896e-006          61.285181       0.0349916952         45.5833967    5.91109161e-006         61.0860833       0.0687629357         167.337812

         150000000      0.0225406194         28.4653618    5.58369218e-006         59.1747812       0.0195113605         62.6226859     4.6838806e-006         59.1333609
                  5.58369811e-006         59.1747819       0.0734461213          156.92432    7.74833131e-006         58.9533183       0.0363938894         43.8257304
                      0.019511345         62.6227598    7.74830349e-006         58.9533782       0.0230355998         29.7416254    6.34287777e-006         58.9270638
                  4.68387919e-006         59.1333008       0.0363938969          43.825708    6.34287806e-006         58.9270056       0.0735057898         156.919205

         160000000      0.0235466681         28.2918655    5.95936578e-006         56.9853944        0.020778789         60.9141351    4.99872313e-006         56.9253089
                  5.95937358e-006         56.9853837       0.0782551099         146.927305    8.27017989e-006         56.7624284        0.037728158         42.2439069
                     0.0207787739         60.9142189    8.27014259e-006          56.762561       0.0240852911         29.5712776    6.77008826e-006         56.7128561
                  4.99871995e-006         56.9252378       0.0377281673         42.2438813    6.77008685e-006         56.7127794       0.0782876384         146.925725

         170000000      0.0245423524         27.9726682    6.32817267e-006         54.7566435       0.0220421029         59.2040634    5.30765226e-006         54.6791382
                   6.3281824e-006         54.7566181       0.0828271224         137.371665     8.7831467e-006         54.5335306       0.0390055541         40.8462213
                     0.0220420894         59.2041534     8.7831015e-006         54.5337529       0.0251242407         29.2555332    7.18970283e-006         54.4611504
                  5.30764683e-006         54.6790617       0.0390055655         40.8461923    7.18969883e-006          54.461059       0.0828287404         137.371571

         180000000      0.0255406498         27.5928896    6.68914629e-006         52.4969391       0.0233019035         57.4922093    5.60982448e-006         52.4032237
                  6.68915744e-006         52.4968983       0.0872743578         128.168182    9.28595795e-006         52.2746321       0.0402584365         39.5950679
                     0.0233018926         57.4923018    9.28590823e-006         52.2749513       0.0261660046         28.8772435    7.60061558e-006         52.1801057
                  5.60981654e-006         52.4031482       0.0402584501         39.5950349    7.60060826e-006         52.1800051       0.0872412099         128.168107

         190000000      0.0265283964         27.1016349     7.0405692e-006          50.222613       0.0245576664         55.7801674    5.90381653e-006         50.1140643
                  7.04058133e-006         50.2225565       0.0914481544          119.32683    9.77634301e-006         50.0014487       0.0415146251         38.4889763
                     0.0245576585         55.7802588    9.77629284e-006         50.0018627        0.027196743         28.3879713    8.00095225e-006         49.8858672
                  5.90380604e-006         50.1139955       0.0415146406         38.4889386    8.00094114e-006         49.8857637       0.0913771988         119.325673

         200000000      0.0275167236         26.5636578    7.37998117e-006         47.9464476        0.025809828         54.0669102    6.18759681e-006         47.8249469
                  7.37999376e-006         47.9463764       0.0951243859         110.784642    1.02510486e-005          47.726146       0.0427901528           37.52834
                     0.0258098232         54.0669978    1.02510024e-005         47.7266439       0.0282281004         27.8506525    8.38803768e-006         47.5913661
                  6.18758398e-006         47.8248897       0.0427901693          37.528297    8.38802264e-006          47.591266       0.0950128981         110.781534

         210000000      0.0284889201         25.9403711    7.70748696e-006         45.6806998       0.0270578387         52.3529797     6.4612634e-006         45.5480122
                  7.70749947e-006         45.6806162       0.0983975457         102.537617    1.07102259e-005          45.460577       0.0441156258         36.6697051
                      0.027057837         52.3530612    1.07101878e-005         45.4611405       0.0292428725         27.2289331    8.76200821e-006         45.3085179
                  6.46124869e-006         45.5479702       0.0441156419         36.6696568    8.76198949e-006         45.3084271       0.0982431972          102.53208

         220000000      0.0294600833         25.2799382    8.02207162e-006         43.4374304       0.0283021938         50.6381987    6.72402403e-006         43.2953208
                  8.02208357e-006         43.4373374        0.101164452         94.5822382    1.11525318e-005         43.2161813       0.0455232573         35.8956614
                     0.0283021948         50.6382725     1.1152505e-005         43.2167871       0.0302565267          26.569216    9.12182118e-006         43.0490354
                  6.72400789e-006         43.2952953       0.0455232715         35.8956084    9.12179919e-006         43.0489579         0.10096525         94.5741213

         230000000      0.0304171927         24.5493077    8.32223979e-006         41.2317386       0.0295423907         48.9237071    6.97471485e-006         41.0822679
                  8.32225075e-006         41.2316397        0.103168921         86.8652007    1.15759925e-005         41.0074037       0.0470319698         35.1998467
                     0.0295423939         48.9237724    1.15759793e-005         41.0080261       0.0312555705         25.8402334    9.46594517e-006         40.8279277
                  6.97469799e-006         41.0822593       0.0470319801         35.1997908    9.46592075e-006         40.8278667        0.102923415          86.854413

         240000000      0.0313719631         23.7886994    8.60931912e-006         39.0660693       0.0307788439         47.2086031    7.21446924e-006         38.9109269
                  8.60932875e-006         39.0659682        0.104624769         79.3852822    1.19823764e-005         38.8365009       0.0486604699         34.5199415
                     0.0307788487         47.2086595    1.19823774e-005         38.8371139       0.0322521115         25.0807724    9.79588318e-006         38.6471721
                  7.21445236e-006         38.9109341       0.0486604752         34.5198851    9.79585734e-006         38.6471292        0.104331903           79.37217

         250000000      0.0323108068         22.9724699     8.8834764e-006         36.9606427       0.0320110642         45.4936341    7.44355297e-006          36.801105
                  8.88348448e-006         36.9605432        0.105275905          72.198785    1.23719109e-005         36.7227305       0.0504485241         33.8342396
                     0.0320110702         45.4936815    1.23719256e-005         36.7233098       0.0332322047         24.2667197    1.01119908e-005         36.5260148
                  7.44353676e-006         36.8011257       0.0504485237         33.8341855    1.01119647e-005           36.52599        0.104934992         72.1840121

         260000000      0.0332462057         22.1315016    9.14498928e-006         34.9159973       0.0332394649         43.7782141    7.66225554e-006         34.7533138
                   9.1449957e-006         34.9159031        0.105149603         65.2266132     1.2744967e-005         34.6664297       0.0523907309         33.1093497
                     0.0332394713         43.7782528    1.27449934e-005         34.6669543       0.0342086458         23.4276763    1.04146553e-005         34.4648427
                  7.66224064e-006         34.7533447        0.052390725         33.1093006    1.04146301e-005         34.4648344        0.104760647          65.210958

         270000000      0.0341649905         21.2449137    9.39562489e-006         32.9352873       0.0344635707          42.062943    7.87209983e-006         32.7702515
                  9.39562965e-006         32.9352017        0.104315313         58.4699183    1.31038946e-005         32.6705549       0.0544848649         32.3050655
                     0.0344635771         42.0629736    1.31039294e-005         32.6710081       0.0351679755         22.5440689    1.07058934e-005         32.4662351
                  7.87208674e-006         32.7702886       0.0544848544         32.3050235    1.07058701e-005         32.4662404        0.103878962         58.4545497

         280000000       0.035079376         20.3375373    9.63745035e-006         31.0403416       0.0356837816         40.3473321    8.07496935e-006         30.8725959
                  9.63745355e-006         31.0402676        0.102480828           52.07736    1.34514144e-005         30.7556446       0.0567723253         31.3874137
                     0.0356837875         40.3473554    1.34514535e-005         30.7560151       0.0361226811         21.6395889     1.0988186e-005         30.5501156
                  8.07495848e-006         30.8726351       0.0567723122         31.3873802    1.09881659e-005         30.5501308         0.10199798         52.0642943

