! Created Tue Feb 26 13:30:01 2019
# hz S ma R 50
! 4 Port Network Data from SP1.SP block
! freq  magS11  angS11  magS12  angS12  magS13  angS13  magS14  angS14  
!       magS21  angS21  magS22  angS22  magS23  angS23  magS24  angS24  
!       magS31  angS31  magS32  angS32  magS33  angS33  magS34  angS34  
!       magS41  angS41  magS42  angS42  magS43  angS43  magS44  angS44  
!     
                 0      0.0248854349        -24.2035109    7.57896486e-006        -138.202278      0.00126205024         70.7104231    3.81839585e-006        -140.802037
                  7.58025321e-006        -138.212746       0.0325305041        -17.8256908    3.82143049e-006         -141.02195      0.00125748167         72.2609177
                    0.00126202035         70.7195848    3.82146233e-006        -141.022328       0.0248889657        -24.2712081    4.05769841e-006        -137.111912
                  3.81839207e-006        -140.801349       0.0012573806         72.2768852    4.05280317e-006        -137.033573       0.0325353541        -17.8620036

          10000000      0.0250524085        -22.2103737     3.5626587e-005        -108.814968      0.00240718626         75.5415186    3.09405939e-005        -105.834069
                  3.56265875e-005        -108.814967       0.0326894708        -16.2336398    3.09043469e-005        -105.895763      0.00344685482         79.2949872
                     0.0024071863         75.5415092    3.09043482e-005        -105.895764       0.0250687915         -22.257593    3.12959989e-005        -105.705799
                  3.09406181e-005        -105.834058       0.0034468559         79.2957721    3.12959862e-005        -105.705763       0.0327172496        -16.2776707

          20000000      0.0282724127        -41.5288944    6.82589779e-005        -110.414252      0.00466707702         69.3795823    5.95781389e-005        -109.000414
                  6.82589799e-005        -110.414251       0.0336985014        -31.8640739    5.94902839e-005        -109.048506      0.00676289355          77.589114
                    0.00466708185         69.3794465    5.94902856e-005        -109.048507       0.0283116317        -41.6019415    6.02974261e-005        -108.897711
                  5.95781529e-005        -109.000404       0.0067629113          77.589628    6.02974126e-005        -108.897715       0.0337322089        -31.9437946

          30000000      0.0329238716         -57.147445     0.000100760947          -114.9807       0.0068409338         61.9740748    8.79980982e-005        -114.134395
                   0.000100760948        -114.980699       0.0347039462        -47.0950918    8.78473606e-005        -114.178805       0.0100048131          74.902392
                    0.00684092902         61.9740866    8.78473628e-005        -114.178806       0.0329919849        -57.2134397    8.90866325e-005        -114.037534
                  8.79981035e-005        -114.134396       0.0100048314         74.9025973    8.90866481e-005        -114.037533       0.0347473277        -47.2026548

          40000000      0.0384582455        -69.7439666     0.000133252887        -120.378087      0.00890876436         54.1881277     0.000116373312         -119.83238
                   0.000133252889        -120.378086       0.0359886677        -62.0786954     0.000116145342        -119.873406       0.0131256769         72.1295398
                    0.00890876812          54.188154     0.000116145343        -119.873408       0.0385575025        -69.7887638     0.000117835843        -119.736551
                   0.000116373309        -119.832378       0.0131256872         72.1296719     0.000117835845         -119.73655       0.0360434229         -62.203562

          50000000      0.0445194986        -80.1648318     0.000165852822        -126.149885       0.0108460183         46.2147855     0.000144826944        -125.794529
                   0.000165852824        -126.149884       0.0376221373        -76.7524204     0.000144506676        -125.830176       0.0160790088         69.0944893
                     0.0108460206         46.2147872     0.000144506676        -125.830177       0.0446497278        -80.1840386     0.000146668005        -125.698243
                   0.000144826939        -125.794532       0.0160790183         69.0945574     0.000146668008        -125.698245       0.0376879468        -76.8826646

          60000000      0.0507992039        -89.2488775     0.000198691152        -132.146934       0.0126314253         38.1177877     0.000173481202        -131.926114
                   0.000198691152        -132.146934       0.0395330066        -91.3234509     0.000173054551        -131.953482       0.0188578762         66.1241144
                     0.0126314253         38.1177835     0.000173054551        -131.953482       0.0509589123        -89.2421257     0.000175705403        -131.828733
                   0.000173481203        -131.926113       0.0188578802         66.1241283     0.000175705399        -131.828734       0.0396104245        -91.4488114

          70000000      0.0571707808        -97.3099784     0.000231851726        -138.295192       0.0142405258         29.9027682     0.000202401242        -138.179843
                   0.000231851726        -138.295192       0.0418701871        -105.554432     0.000201857134        -138.195965       0.0214715441         62.9917183
                     0.0142405218         29.9027504     0.000201857135        -138.195965       0.0573573771        -97.2791979     0.000205015052        -138.080406
                   0.000202401241        -138.179842        0.021471544         62.9917153     0.000205015054        -138.080407       0.0419646804         -105.66981

          80000000      0.0634948796        -104.665933     0.000265374573        -144.566165       0.0156559827         21.5741559     0.000231619754        -144.537813
                   0.000265374572        -144.566165       0.0446140033        -119.384067     0.000230951019        -144.539624       0.0239021864          59.995413
                     0.0156559792         21.5741368     0.000230951019        -144.539624       0.0637057465        -104.612833     0.000234629581        -144.435764
                   0.000231619753        -144.537811       0.0239021858         59.9954116     0.000234629584        -144.435767       0.0447236051        -119.484548

          90000000      0.0696229251        -111.688306     0.000299317099        -150.958946       0.0168756996         13.1385077     0.000261185322        -151.004509
                   0.000299317099        -150.958946       0.0477536241        -132.943559     0.000260390993        -150.989261       0.0261577867         57.1396993
                     0.0168756997         13.1385053     0.000260390993        -150.989261       0.0698551058        -111.613815     0.000264598328         -150.89949
                   0.000261185321        -151.004509       0.0261577857         57.1397005     0.000264598327        -150.899489       0.0478729781        -133.025662

         100000000      0.0754979503        -118.327303     0.000333573883        -157.452599       0.0178811941         4.56260425     0.000291006343        -157.562077
                   0.000333573883        -157.452599       0.0513198491        -145.948016     0.000290093181        -157.527561       0.0282327077         54.4570782
                     0.0178811942         4.56260317     0.000290093181        -157.527561       0.0757486248         -118.23277     0.000294828379        -157.453853
                    0.00029100634        -157.562076       0.0282327079         54.4570766      0.00029482838        -157.453854       0.0514420089        -146.011002

         110000000      0.0810405188        -124.706917     0.000368074997        -164.037303       0.0186587357        -4.17167591     0.000321019715        -164.202417
                   0.000368074998        -164.037303       0.0552302955        -158.329195     0.000320000012        -164.147319       0.0301294642         51.9627226
                     0.0186587388        -4.17166529     0.000320000273        -164.147281       0.0813072311        -124.596343     0.000325254927         -164.09089
                   0.000321019716        -164.202417       0.0301294657         51.9627172     0.000325254905         -164.09089       0.0553506271        -158.375279

         120000000      0.0861609104        -130.954802     0.000402747382        -170.717683       0.0192277024        -13.0961576     0.000351166241        -170.932853
                   0.000402747382        -170.717684       0.0594833783        -170.299314     0.000350061486        -170.856466       0.0318794823         49.6424736
                     0.0192277125         -13.096133      0.00035006157        -170.856452         0.08643896         -130.82793     0.000355818376        -170.817807
                   0.000351166246        -170.932854       0.0318794854         49.6424636      0.00035581837        -170.817788       0.0595964016        -170.330681

         130000000      0.0907233664        -137.078383     0.000437444694        -177.481422       0.0195895841         -22.265525     0.000381321242        -177.741823
                   0.000437444687        -177.481424       0.0640407656         178.237141     0.000380159163        -177.644339       0.0334974559         47.5130768
                     0.0195896047        -22.2654907     0.000380159249        -177.644327       0.0910075119        -136.935354     0.000386391566        -177.623107
                   0.000381321253        -177.741824       0.0334974606         47.5130622     0.000386391755        -177.623094       0.0641411029         178.217557

         140000000      0.0947466914        -143.063486     0.000471939495         175.695218       0.0197434984        -31.7298978     0.000411281899         175.393633
                   0.000471939475         175.695216       0.0686805434         167.348789     0.000410096751         175.511219       0.0349916892         45.5834155
                      0.019743531        -31.7298607      0.00041009685         175.511229       0.0950313011        -142.904954     0.000416769766         175.516164
                   0.000411281914         175.393629       0.0349916952         45.5833967     0.000416769997         175.516155       0.0687629357         167.337812

         150000000      0.0982118718        -148.980846     0.000506124122         168.812045       0.0197183474        -41.5247678     0.000440956353         168.472713
                   0.000506124089         168.812043       0.0734461213          156.92432     0.000439786405         168.608676       0.0363938894         43.8257304
                     0.0197183919        -41.5247347     0.000439786519         168.608685       0.0984903715        -148.807446     0.000446860376         168.599214
                   0.000440956364         168.472707       0.0363938969          43.825708     0.000446860564         168.599193       0.0735057898         156.919205

         160000000       0.100997942        -154.844888     0.000539814128         161.881025        0.019534679          -51.73312     0.000470187438         161.507343
                   0.000539814088         161.881025       0.0782551099         146.927305     0.000469074081         161.659324        0.037728158         42.2439069
                     0.0195347341        -51.7330961     0.000469074209         161.659331        0.101262834        -154.656799     0.000476504205         161.637859
                   0.000470187446         161.507336       0.0377281673         42.2438813     0.000476504335         161.637833       0.0782876384         146.925725

         170000000       0.103062809        -160.633041     0.000572785196         154.927781       0.0192120918        -62.4291183     0.000498779035         154.522997
                   0.000572785167         154.927782       0.0828271224         137.371665     0.000497764947          154.68798       0.0390055541         40.8462213
                     0.0192121553        -62.4291067      0.00049776509         154.687986        0.103306398        -160.428921     0.000505502724         154.657423
                   0.000498779032         154.522988       0.0390055655         40.8461923     0.000505502807         154.657395       0.0828287404         137.371571

         180000000       0.104463487        -166.388639     0.000604939308         147.953494        0.018815152        -73.6133822      0.00052664948         147.520473
                   0.000604939582         147.953486       0.0872743578         128.168182     0.000525776034         147.694904       0.0402584365         39.5950679
                     0.0188152214        -73.6133836      0.00052577621         147.694908        0.104687633        -166.165548     0.000533773426         147.658699
                   0.000526649476         147.520462       0.0402584501         39.5950349     0.000533773469         147.658672       0.0872412099         128.168107

         190000000       0.105103662        -172.119738     0.000636129547         140.973925       0.0184318806         -85.520707      0.00055367715         140.515655
                   0.000636129398         140.973936       0.0914481544          119.32683      0.00055298187         140.695562       0.0415146251         38.4889763
                     0.0184319533        -85.5207197     0.000552982019         140.695567        0.105309821         -171.88611     0.000561191661         140.657454
                   0.000553677118         140.515643       0.0415146406         38.4889386     0.000561191669         140.657427       0.0913771988         119.325673

         200000000       0.104937166        -177.799059      0.00066618397         134.010403       0.0180362047        -98.3253642     0.000579715438         133.529694
                   0.000666183915         134.010414       0.0951243859         110.784642      0.00057923068         133.710737       0.0427901528           37.52834
                     0.0180362785        -98.3253838      0.00057923084         133.710741        0.105109566        -177.557681     0.000587608171         133.674754
                   0.000579715391         133.529682       0.0427901693          37.528297     0.000587608153         133.674729       0.0950128981         110.781534

         210000000       0.104079579          176.54018     0.000695093887          127.06714       0.0177022871        -111.830926     0.000604762401         126.566394
                   0.000695093874         127.067147       0.0983975457         102.537617     0.000604512022         126.744005       0.0441156258         36.6697051
                     0.0177023599        -111.830949     0.000604512183         126.744008        0.104209294         176.789486     0.000613020272         126.714474
                   0.000604762337         126.566382       0.0441156419         36.6696567      0.00061302023         126.714451       0.0982431972          102.53208

         220000000       0.102454008         170.874096     0.000722796785         120.157022       0.0175239989        -126.002524     0.000628774262         119.638764
                   0.000722796775         120.157027        0.101164452         94.5822382     0.000628772321         119.808262       0.0455232573         35.8956614
                     0.0175240689        -126.002544     0.000628772479         119.808264         0.10253441         171.130922     0.000637381641         119.789577
                   0.000628774183         119.638752       0.0455232715         35.8956084     0.000637381585         119.789556         0.10096525         94.5741213

         230000000      0.0999836021         165.236412     0.000749227512         113.300723       0.0175716003        -140.738845     0.000651701045         112.767105
                   0.000749227501         113.300727        0.103168921         86.8652007     0.000651949498         112.923717       0.0470319698         35.1998467
                      0.017571666        -140.738859     0.000651949648         112.923719        0.100009139         165.500075     0.000660639474         112.920327
                   0.000651700952         112.767093       0.0470319801         35.1997908     0.000660639401         112.920309        0.102923415          86.854413

         240000000      0.0968799058         159.618072     0.000774484799         106.494838       0.0178899901         -155.72579     0.000673631528         105.946996
                   0.000774484789         106.494842        0.104624769         79.3852822     0.000674117097         106.086159       0.0486604699         34.5199415
                     0.0178900503        -155.725798     0.000674117238         106.086159       0.0968453685           159.8868      0.00068288372         106.102539
                   0.000673631423         105.946986       0.0486604752         34.5198851     0.000682883639         106.102523        0.104331903           79.37217

         250000000      0.0929532737         153.943434     0.000798634038         99.7577625       0.0185334435        -170.685362     0.000694643505         99.1973677
                    0.00079863403         99.7577661        0.105275905          72.198785     0.000695338906         99.3148871       0.0504485241         33.8342396
                     0.0185334972        -170.685364     0.000695339035         99.3148873        0.092853105         154.215851     0.000704189282         99.3550935
                   0.000694643394         99.1973587       0.0504485237         33.8341854     0.000704189194         99.3550795        0.104934992         72.1840121

         260000000      0.0883285143         148.289226     0.000821751484         93.0941667       0.0194905935         174.679178     0.000714798703         92.5213173
                   0.000821751479           93.09417        0.105149603         65.2266132     0.000715659177         92.6134474       0.0523907309         33.1093497
                     0.0194906399          174.67918     0.000715659292         92.6134473       0.0881585924         148.563193     0.000724619246         92.6812959
                    0.00071479859         92.5213098        0.052390725         33.1093006      0.00072461916         92.6812841        0.104760647          65.210958

         270000000      0.0831447935         142.673901     0.000844001537         86.5043851       0.0207290109         160.596667     0.000734237593         85.9181724
                   0.000844001535         86.5043879        0.104315313         58.4699183     0.000735201055         85.9819721       0.0544848649         32.3050655
                     0.0207290497         160.596671     0.000735201154         85.9819717        0.082901814         142.946335     0.000744316955         86.0806727
                   0.000734237484         85.9181665       0.0544848544         32.3050235     0.000744316872         86.0806632        0.103878962         58.4545497

         280000000      0.0771023201          136.89643     0.000865636464         80.0048038        0.022252841         147.213277     0.000753218157         79.4051547
                   0.000865636465         80.0048061        0.102480828           52.07736      0.00075420974         79.4386747       0.0567723253         31.3874137
                     0.0222528721         147.213281     0.000754209821         79.4386742        0.076781754         137.164443     0.000763537749          79.570408
                   0.000753218057         79.4051506       0.0567723122         31.3873802     0.000763537675         79.5704008         0.10199798         52.0642943

