! Created Tue Feb 26 13:48:32 2019
# hz S ma R 50
! 4 Port Network Data from SP1.SP block
! freq  magS11  angS11  magS12  angS12  magS13  angS13  magS14  angS14  
!       magS21  angS21  magS22  angS22  magS23  angS23  magS24  angS24  
!       magS31  angS31  magS32  angS32  magS33  angS33  magS34  angS34  
!       magS41  angS41  magS42  angS42  magS43  angS43  magS44  angS44  
!     
                 0     0.00917746161   -1.78927022e-011    3.96356968e-007        0.531588588     0.000137556135   -1.46981796e-009    3.22005821e-007        0.502175705
                  3.96365488e-007        0.531588442       0.0325305041        -17.8256908    4.89450926e-007        0.531823948      0.00125748167         72.2609177
                   0.000137324075   -1.47227896e-009       4.89448e-007        0.531824076      0.00926413793   -2.68720369e-011    3.95061891e-007        0.502526407
                   3.2191074e-007        0.502315871      0.00125738059         72.2768852     3.9506661e-007        0.502549051       0.0325353541        -17.8620036

          10000000      0.0103888173         10.1694801    7.20264402e-006         79.7288437      0.00232377627         81.0887677    5.78282049e-006         79.6640309
                  7.20264376e-006         79.7288442       0.0326894708        -16.2336398    9.06036911e-006         79.8180932      0.00344685482         79.2949872
                    0.00232377628         81.0887673    9.06036944e-006         79.8180928       0.0103829178          10.098083    7.19264652e-006         79.7048495
                  5.78282081e-006         79.6640303       0.0034468559         79.2957721    7.19264692e-006         79.7048488       0.0327172496        -16.2776707

          20000000      0.0115746402         17.1175998    1.37870198e-005         80.4689731      0.00464737515          81.450719    1.10684135e-005         80.3830768
                  1.37870195e-005         80.4689734       0.0336985014        -31.8640739    1.73452642e-005         80.5412874      0.00676289355         77.5891141
                    0.00464737913         81.4507957    1.73452645e-005          80.541287       0.0115624897          16.988904    1.37646368e-005          80.426301
                  1.10684138e-005         80.3830762       0.0067629113         77.5896281    1.37646373e-005         80.4263002       0.0337322088        -31.9437946

          30000000      0.0127573588         23.3373723    2.03168756e-005          79.795822      0.00698535603         80.6277756    1.63080596e-005         79.6808254
                  2.03168752e-005         79.7958229       0.0347039462        -47.0950918    2.55602481e-005         79.8716032       0.0100048131          74.902392
                    0.00698535818         80.6277405    2.55602488e-005         79.8716025       0.0127348084         23.1663006    2.02787416e-005         79.7392971
                  1.63080602e-005         79.6808243       0.0100048314         74.9025974    2.02787423e-005          79.739296       0.0347473277        -47.2026548

          40000000      0.0141118414         28.1764662    2.68536528e-005         78.6665647      0.00932260924         79.6778628    2.15508718e-005         78.5233996
                  2.68536523e-005         78.6665662       0.0359886677        -62.0786955     3.3780964e-005         78.7514301       0.0131256769         72.1295399
                    0.00932260638         79.6778601    3.37809645e-005         78.7514289       0.0140767458         27.9799199    2.67954709e-005         78.5996605
                  2.15508722e-005         78.5233981       0.0131256872         72.1296719    2.67954713e-005          78.599659       0.0360434228         -62.203562

          50000000      0.0156187983         31.7898695    3.34352621e-005          77.296539       0.0116282534         78.2836954    2.68271631e-005         77.1274945
                  3.34352621e-005         77.2965398       0.0376221372        -76.7524204    4.20538683e-005         77.3938408       0.0160790088         69.0944894
                     0.0116282534         78.2837105    4.20538684e-005         77.3938401        0.015569545         31.5807028    3.33520439e-005          77.222855
                  2.68271632e-005         77.1274936       0.0160790183         69.0945575    3.33520441e-005         77.2228541       0.0376879468        -76.8826646

          60000000      0.0172196026         34.5195603    4.00934001e-005         75.7569272       0.0139192736          76.842197    3.21627268e-005          75.564261
                  4.00934001e-005         75.7569275       0.0395330065        -91.3234509    5.04174243e-005         75.8702906       0.0188578762         66.1241145
                     0.0139192747         76.8422044    5.04174242e-005         75.8702905       0.0171553521         34.3055085    3.99798439e-005         75.6804929
                  3.21627267e-005         75.5642609       0.0188578802         66.1241284    3.99798439e-005         75.6804926       0.0396104245        -91.4488115

          70000000      0.0188966443         36.3689934     4.6838974e-005         74.0814449       0.0161979628         74.9997189     3.7566343e-005         73.8676538
                   4.6838974e-005         74.0814449       0.0418701871        -105.554432    5.88855252e-005          74.214431       0.0214715441         62.9917185
                     0.0161979632         74.9997204    5.88855252e-005          74.214431       0.0188170268         36.1551367    4.66900599e-005           74.00657
                   3.7566343e-005         73.8676539        0.021471544         62.9917154    4.66900599e-005         74.0065701       0.0419646804         -105.66981

          80000000      0.0206244788         37.7005081    5.36793566e-005          72.282991       0.0184696602         73.1373761    4.30445852e-005          72.049774
                  5.36793566e-005          72.282991       0.0446140034        -119.384067    6.74671364e-005         72.4394681       0.0239021864         59.9954131
                     0.0184696601         73.1373767    6.74671364e-005         72.4394682       0.0205291566         37.4896187    5.34906977e-005         72.2135359
                  4.30445853e-005         72.0497741       0.0239021858         59.9954118    5.34906977e-005          72.213536       0.0447236051        -119.484548

          90000000      0.0223882244         38.5001982    6.06210222e-005         70.3648887       0.0207336803         71.2630567    4.86030644e-005         70.1130235
                  6.06210222e-005         70.3648887       0.0477536241        -132.943559    7.61703583e-005         70.5490299       0.0261577867         57.1396995
                     0.0207336807         71.2630547    7.61703584e-005         70.5490299       0.0222771405          38.293435    6.03887837e-005         70.3040629
                  4.86030645e-005         70.1130235       0.0261577857         57.1397007    6.03887836e-005         70.3040629       0.0478729782        -133.025662

         100000000      0.0241810399         38.9875884    6.76452609e-005         68.3392794       0.0229905707         69.3791008    5.42270205e-005         68.0694136
                  6.76452609e-005         68.3392794       0.0513198492        -145.948016    8.49730216e-005         68.5549213       0.0282327077         54.4570785
                     0.0229905712            69.3791    8.49730217e-005         68.5549213       0.0240540364         38.7859392    6.73667155e-005         68.2899853
                  5.42270205e-005         68.0694136       0.0282327079         54.4570768    6.73667155e-005         68.2899853        0.051442009        -146.011002

         110000000      0.0259767748         39.1025808    7.47324702e-005         66.2153043       0.0252384519         67.4874559    5.99011791e-005          65.927849
                    7.473247e-005         66.2153045       0.0552302957        -158.329195    9.38518153e-005         66.4660973       0.0301294641         51.9627229
                       0.02523845         67.4874591    9.38518133e-005          66.466098       0.0258340092         38.9064139     7.4406244e-005          66.180083
                  5.99011792e-005         65.9278491       0.0301294656         51.9627175    7.44062444e-005         66.1800828       0.0553506272        -158.375279

         120000000      0.0277888823         39.0220019    8.18661927e-005          63.993408       0.0274789507         65.5904733     6.5612244e-005         63.6879944
                  8.18661924e-005         63.9934086       0.0594833785        -170.299314     0.000102787333         64.2829677       0.0318794823         49.6424739
                     0.0274789444         65.5904825      0.00010278732          64.282971       0.0276302977         38.8318044    8.14915859e-005         63.9740354
                  6.56122442e-005         63.6879944       0.0318794854         49.6424639    8.14915869e-005         63.9740345       0.0595964017        -170.330681

         130000000      0.0295989005         38.7032671    8.90157244e-005         61.6861864       0.0297113906         63.6911166    7.13357197e-005         61.3622334
                  8.90157242e-005         61.6861875       0.0640407659         178.237141     0.000111742916         62.0177195       0.0334974559         47.5130772
                     0.0297113793          63.691134     0.000111742859         62.0177312       0.0294246553         38.5188645    8.85932852e-005         61.6839467
                  7.13357201e-005         61.3622333       0.0334974605         47.5130626    8.85932867e-005          61.683945        0.064141103         178.217556

         140000000       0.031417327         38.2554968    9.61307803e-005         59.3077592       0.0319361076         61.7886276    7.70310434e-005          58.964885
                  9.61307807e-005          59.307761       0.0686805438         167.348789     0.000120658461         59.6839042       0.0349916891         45.5834159
                     0.0319360919         61.7886545     0.000120658234         59.6839356       0.0312274976         38.0769644     9.5662448e-005         59.3237014
                   7.7031044e-005         58.9648848       0.0349916951         45.5833971    9.56624499e-005         59.3236986       0.0687629359         167.337812

         150000000       0.033222874           37.64002     0.000103187048         56.8693482       0.0341523907         59.8850847    8.26783009e-005         56.5069189
                   0.000103187048         56.8693509       0.0734461217          156.92432     0.000129505286         57.2928268       0.0363938893         43.8257309
                     0.0341523722         59.8851211     0.000129504205         57.2927911       0.0330176698         37.4668664      0.00010267515         56.9040578
                  8.26783017e-005         56.5069184       0.0363938968         43.8257085     0.000102675152         56.9040544         0.07350579         156.919205

         160000000      0.0350314638         36.9354173     0.000110144736         54.3824824       0.0363606068         57.9796208    8.82453747e-005         53.9998625
                    0.00011014473         54.3824828       0.0782551104         146.927305     0.000138229249         54.8579708       0.0377281579         42.2439075
                     0.0363605874         57.9796656      0.00013822918         54.8554598       0.0348108861         36.7675774     0.000109592677         54.4362068
                  8.82453757e-005         53.9998617       0.0377281672         42.2438818     0.000109592673         54.4362023       0.0782876387         146.925725

         170000000      0.0368220612         36.1092565     0.000116952803         51.8670207       0.0385601374         56.0739136    9.36912203e-005         51.4639671
                   0.000116952811         51.8670209       0.0828271229         137.371665     0.000146771828         52.3864244       0.0390055539          40.846222
                     0.0385601188         56.0739651     0.000146774657         52.3871371       0.0365863453         35.9463602     0.000116365404         51.9399173
                  9.36912214e-005          51.463966       0.0390055653          40.846193      0.00011636541         51.9399068       0.0828287408         137.371571

         180000000      0.0386115864         35.2191618     0.000123591317         49.3317953       0.0407512631         54.1670106    9.89993019e-005         48.9080565
                   0.000123591325         49.3317967       0.0872743584         128.168182     0.000155122573         49.8998835       0.0402584364         39.5950686
                     0.0407512468         54.1670662     0.000155123161         49.9003346       0.0383608312         35.0609582     0.000122973448         49.4237901
                  9.89993029e-005         48.9080551         0.04025845         39.5950356     0.000122973452         49.4237769       0.0872412103         128.168107

         190000000      0.0403830693         34.2389336     0.000130029914         46.7944825       0.0429334859         52.2605329     0.000104145365         46.3499016
                   0.000130029922         46.7944837        0.091448155          119.32683     0.000163232254         47.4117556       0.0415146249         38.4889771
                     0.0429334732         52.2605901     0.000163232473         47.4120113       0.0401173723         34.0848846     0.000129387442         46.9051965
                   0.000104145365            46.3499       0.0415146405         38.4889394     0.000129387439          46.905179       0.0913771992         119.325673

         200000000      0.0421504886         33.2113264     0.000136226874         44.2700773       0.0451069398         50.3533142      0.00010909614         43.8048775
                   0.000136226882          44.270078       0.0951243867         110.784642      0.00017105214         44.9357872       0.0427901527         37.5283409
                     0.0451069313         50.3533708     0.000171052265         44.9359513       0.0418698297         33.0611814     0.000135567127         44.3990642
                    0.00010909614         43.8048756       0.0427901692         37.5282979     0.000135567109         44.3990437       0.0950128986         110.781534

         210000000      0.0438944624         32.1172136     0.000142186667          41.770537       0.0472712893         48.4465476     0.000113855077         41.2849096
                   0.000142186676         41.7705372       0.0983975465         102.537617     0.000178588102         42.4835201       0.0441156257         36.6697061
                     0.0472712851         48.4466015     0.000178588195         42.4836341       0.0435988945         31.9705482     0.000141516735         41.9171013
                   0.000113855077         41.2849076       0.0441156418         36.6696577     0.000141516697         41.9170817       0.0982431977          102.53208

         220000000      0.0456318825         30.9866053     0.000147897335         39.3086211       0.0494265636         46.5393404     0.000118412933          38.802735
                   0.000147897343         39.3086209        0.101164453         94.5822386      0.00018582582         40.0671013       0.0455232573         35.8956624
                     0.0494265634         46.5393901     0.000185825899         40.0671843       0.0453213326         30.8432388     0.000147225019         39.4716613
                   0.000118412933         38.8027329       0.0455232714         35.8956094     0.000147224963         39.4716468         0.10096525         94.5741215

         230000000      0.0473476178         29.8021311     0.000153341341         36.9010443       0.0515723547         44.6329195     0.000122756407         36.3752692
                   0.000153341348         36.9010438        0.103168922         86.8652011      0.00019274418         37.7025822       0.0470319698         35.1998478
                      0.051572358         44.6329641     0.000192744251         37.7026439       0.0470220533         29.6617395     0.000152675728         37.0792076
                   0.000122756406         36.3752672       0.0470319801         35.1997919     0.000152675663         37.0792008        0.102923416         86.8544132

         240000000      0.0490547374         28.5890114     0.000158548228         34.5486956       0.0537087208         42.7262597     0.000126908935          34.003243
                   0.000158548235         34.5486948         0.10462477         79.3852827     0.000199378813          35.390735       0.0486604699         34.5199427
                     0.0537087269         42.7262984     0.000199378878         35.3907812       0.0487140766         28.4514784     0.000157897276         34.7404139
                   0.000126908933         34.0032412       0.0486604752         34.5198862     0.000157897213         34.7404144        0.104331904         79.3721703

         250000000      0.0507382052         27.3339659     0.000163537242         32.2711173       0.0558353689         40.8203776     0.000130886674         31.7058865
                   0.000163537248         32.2711164        0.105275906         72.1987855     0.000205752774         33.1502822       0.0504485241         33.8342408
                     0.0558353769         40.8204104     0.000205752832         33.1503166       0.0503824354         27.1990571     0.000162908969         32.4740049
                   0.000130886672         31.7058849       0.0504485237         33.8341866     0.000162908916         32.4740103        0.104934992         72.1840125

         260000000      0.0524112603         26.0558451     0.000168322857         30.0684446       0.0579522689         38.9143976     0.000134701367         29.4834352
                   0.000168322861         30.0684436        0.105149603         65.2266138     0.000211883368         30.9811972        0.052390731          33.109351
                     0.0579522779         38.9144244      0.00021188342         30.9812225       0.0520403308         25.9234928     0.000167724901         30.2800946
                   0.000134701364          29.483434       0.0523907251         33.1093018     0.000167724862         30.2801021        0.104760647         65.2109584

         270000000      0.0540597241         24.7437882     0.000172946864         27.9415902       0.0600591752         37.0092035     0.000138386338         27.3366529
                   0.000172946868         27.9415893        0.104315314          58.469919     0.000217820816         28.8843397        0.054484865         32.3050668
                     0.0600591844         37.0092246      0.00021782086         28.8843578       0.0536736633         24.6138206     0.000172385292         28.1594289
                   0.000138386335          27.336652       0.0544848546         32.3050248     0.000172385266         28.1594364        0.103878963         58.4545502

         280000000      0.0556961965         23.4127594     0.000177471921         25.9079574       0.0621560195         35.1040116     0.000141992109         25.2822994
                   0.000177471923         25.9079566        0.102480829         52.0773608     0.000223640032         26.8762188       0.0567723256          31.387415
                     0.0621560282         35.1040276     0.000223640067         26.8762313       0.0552950078         23.2851403     0.000176950803         26.1282694
                   0.000141992107         25.2822989       0.0567723124         31.3873815     0.000176950786         26.1282756        0.101997981         52.0642948

