! Created Tue Feb 26 14:05:02 2019
# hz S ma R 50
! 4 Port Network Data from SP1.SP block
! freq  magS11  angS11  magS12  angS12  magS13  angS13  magS14  angS14  
!       magS21  angS21  magS22  angS22  magS23  angS23  magS24  angS24  
!       magS31  angS31  magS32  angS32  magS33  angS33  magS34  angS34  
!       magS41  angS41  magS42  angS42  magS43  angS43  magS44  angS44  
!     
                 0      0.0246853896        -23.9699896    1.19402183e-005        -137.999779      0.00133440335         72.7262314    1.23154213e-005        -150.265874
                  1.19401704e-005        -137.999537       0.0325676833        -17.4429221    9.45989608e-006        -136.772204      0.00133328579         71.7364839
                    0.00133442454         72.7180266     9.4598735e-006        -136.772091       0.0246962389         -23.958624    1.48329231e-005        -137.834526
                  1.23152184e-005        -150.265234      0.00133318867         71.7494933    1.48329112e-005        -137.834473       0.0325522745        -17.4780169

          10000000      0.0247295503        -20.0174857     0.000101815733        -106.155552       0.0035116887         75.5320614     0.000123402845        -106.947028
                   0.000101815733        -106.155552        0.032742141        -15.8591848    8.13409115e-005        -105.848053      0.00351938994          78.890944
                    0.00351168869         75.5320615    8.13409115e-005        -105.848053       0.0247421878        -20.0166045     0.000104541788        -106.929566
                   0.000123402845        -106.947028      0.00351938995         78.8909438     0.000104541788        -106.929566       0.0327497622        -15.8997236

          20000000       0.027621471        -38.0142359     0.000194288398        -109.844084      0.00682460881         68.1936897     0.000234061125        -110.149567
                     0.0001942884        -109.844083       0.0337735336        -31.2878655     0.000155554123        -109.701045      0.00689971727         77.0983408
                    0.00682463017         68.1937986     0.000155554119        -109.701044        0.027633174        -38.0228524     0.000199417603        -110.167373
                   0.000234061119        -110.149566      0.00689972616         77.0984932     0.000199417604        -110.167374       0.0337878577        -31.3613184

          30000000      0.0318511582        -52.9583363     0.000285614506        -115.144922       0.0100148255         59.7613912     0.000343607828         -115.10284
                   0.000285614509        -115.144922       0.0347730175        -46.3601043     0.000228840192        -115.109964       0.0101923886         74.2552454
                     0.0100148375         59.7614151     0.000228840191        -115.109964       0.0318609008        -52.9750829     0.000293230902        -115.263233
                   0.000343607827         -115.10284       0.0101923969         74.2552336     0.000293230899        -115.263233       0.0347999414          -46.45875

          40000000      0.0369954119        -65.2389816     0.000376766242        -120.947342       0.0130501348         50.9795501     0.000453447905        -120.622903
                   0.000376766248        -120.947342       0.0360279728        -61.2061557     0.000301955173         -120.99937       0.0133465289         71.3155405
                     0.0130501365         50.9795933      0.00030195517         -120.99937       0.0370031692        -65.2644309     0.000387073148        -120.937617
                   0.000453447903        -120.622903       0.0133465246         71.3155501     0.000387073147        -120.937616       0.0360704507         -61.320766

          50000000      0.0427715571        -75.5303545     0.000468280777        -127.000135        0.015894216         42.0012088     0.000564412588        -126.441651
                   0.000468280782        -127.000135        0.037622594        -75.7787231     0.000375312644        -127.127735       0.0163113097         68.1228441
                     0.0158942171         42.0012092     0.000375312641        -127.127735       0.0427768586        -75.5642324     0.000481532046        -126.904147
                   0.000564412586        -126.441651       0.0163113066         68.1228624     0.000481532043        -126.904147       0.0376824071        -75.8990129

          60000000      0.0488922826        -84.5832196     0.000560654968        -133.221256       0.0185174986         32.8722942     0.000677246926        -132.473654
                   0.000560654969        -133.221256       0.0394894744        -90.2725462     0.000449291848        -133.416444       0.0190755427         65.0092121
                     0.0185174989          32.872297     0.000449291847        -133.416444       0.0488944906        -84.6251387      0.00057712694        -133.068113
                   0.000677246925        -132.473654       0.0190755418         65.0092198     0.000577126939        -133.068113       0.0395671373        -90.3894441

          70000000      0.0552642341        -92.6681047     0.000654056132        -139.570589       0.0208904055         23.5967004      0.00079219764        -138.677412
                   0.000654056132        -139.570589       0.0417969884        -104.406529     0.000524018471         -139.82698       0.0216471762         61.7573457
                     0.0208904062         23.5967009     0.000524018471         -139.82698       0.0552625748        -92.7175983     0.000674024924        -139.383659
                    0.00079219764        -138.677412       0.0216471765          61.757344     0.000674024924        -139.383659       0.0418906002        -104.512798

          80000000      0.0617550679        -100.086757      0.00074864875        -146.032163       0.0229910949         14.1633401     0.000909451297        -145.035593
                    0.00074864875        -146.032163         0.04451766        -118.155474     0.000599616876        -146.344121       0.0240065037         58.6705587
                     0.0229910948          14.163341     0.000599616877        -146.344121       0.0617487883        -100.143354     0.000772361395        -145.831146
                   0.000909451298        -145.035593        0.024006505         58.6705571     0.000772361395        -145.831146       0.0446243015        -118.246075

          90000000      0.0682008252        -107.205816     0.000844691057        -152.614224       0.0248171947         4.56091006      0.00102931791        -151.556086
                   0.000844691059        -152.614224       0.0476336458        -131.664063     0.000676280008        -152.975864       0.0261625946         55.7606458
                     0.0248171951         4.56090873     0.000676280007        -152.975864       0.0681892043        -107.269108     0.000872364043        -152.415631
                    0.00102931791        -151.556086       0.0261625946         55.7606456     0.000872364042        -152.415631       0.0477494111        -131.735881

         100000000      0.0745597133        -113.973572     0.000941922012        -159.299677       0.0263545337        -5.24765521      0.00115131917        -158.217319
                   0.000941922012        -159.299677       0.0511792653        -144.646452      0.00075380693        -159.705859       0.0281123736          53.065742
                     0.0263545338        -5.24765532     0.000753806932        -159.705859       0.0745420329        -114.043159     0.000973701492        -159.117546
                    0.00115131917        -158.217319       0.0281123731         53.0657407     0.000973701491        -159.117545       0.0512990999        -144.699059

         110000000      0.0807443605        -120.512454      0.00104027743        -166.078373       0.0276002571        -15.2905908      0.00127520467        -165.004491
                    0.00104027742        -166.078373       0.0551508672        -157.021027     0.000832149162         -166.52432       0.0298624282         50.6135174
                     0.0276002572        -15.2905859      0.00083214897        -166.524326       0.0807199889        -120.587688      0.00107626347        -165.924499
                    0.00127520467        -165.004491       0.0298624291         50.6135126      0.00107626348        -165.924499       0.0552702048        -157.056365

         120000000      0.0866482119        -126.950649      0.00113945815        -172.966935        0.028585682        -25.6075919      0.00140052283        -171.932153
                    0.00113945812        -172.966934       0.0594565676         -168.99875     0.000911063331        -173.447419       0.0314524315         48.3861621
                     0.0285856834        -25.6075829     0.000911063479        -173.447413       0.0866166332        -127.031318      0.00117965852        -172.849765
                    0.00140052284        -171.932153       0.0314524341         48.3861529      0.00117965853        -172.849766       0.0595697608         -169.01914

         130000000      0.0921286362        -133.292111      0.00123903231        -179.953676       0.0293321882        -36.2491887      0.00152655124        -178.983407
                    0.00123903228        -179.953671       0.0640676754         179.521053     0.000990216019         179.536104       0.0329048853         46.4032749
                     0.0293321917        -36.2491771      0.00099021614         179.536104         0.09208942        -133.378037      0.00128336573        -179.879199
                    0.00152655125        -178.983408       0.0329048895         46.4032613      0.00128336574        -179.879201       0.0641692051         179.512602

         140000000      0.0971939355        -139.528401      0.00133824767         172.985789       0.0298653178        -47.2564915      0.00165207643         173.871535
                     0.0013382477         172.985796       0.0687694426          168.61338      0.00106903118         172.449844       0.0342377939         44.6735548
                     0.0298653237        -47.2564787      0.00106903127         172.449842       0.0971467298        -139.619394      0.00138654485         173.013707
                    0.00165207645         173.871533       0.0342377996          44.673537      0.00138654482         173.013703       0.0688540521         168.613684

         150000000        0.10180576        -145.731754      0.00143676075         165.850427       0.0302399157        -58.6564754      0.00177657442         166.635566
                    0.00143676087         165.850436       0.0736074527         158.166559      0.00114723739         165.292523       0.0354936972         43.1663259
                     0.0302399239        -58.6564629      0.00114723747          165.29252        0.101750309        -145.827641      0.00148880263          165.83013
                    0.00177657444         166.635563       0.0354937045         43.1663045      0.00148880253         165.830125       0.0736703585         158.172852

         160000000       0.105825985        -151.913055      0.00153397444         158.653078       0.0305131314        -70.4929758      0.00189911686          159.32624
                    0.00153397467         158.653087       0.0785018465         148.145482      0.00122437061         158.076592       0.0367078862         41.8787029
                     0.0305131415        -70.4929644      0.00122437068         158.076588        0.105762131        -152.013672      0.00158946764         158.584811
                    0.00189911687         159.326236       0.0367078955         41.8786783      0.00158946744         158.584807       0.0785386698         148.155428

         170000000       0.109196545         -158.04987      0.00162911282         151.421197       0.0307461684        -82.7896509      0.00201847085         151.975055
                    0.00162911314         151.421204       0.0831749377         138.567441      0.00129983927         150.829062       0.0379023664         40.8077537
                     0.0307461799        -82.7896412      0.00129983932         150.829058        0.109124249        -158.155033       0.0016876895         151.306631
                    0.00201847086          151.97505       0.0379023779         40.8077255      0.00168768919         151.306629       0.0831818181         138.579005

         180000000       0.111963053        -164.188487      0.00172182994         144.156321       0.0310160268        -95.5159404      0.00213416485         144.586666
                    0.00172183034         144.156326       0.0877390314         129.340101      0.00137337156           143.5511       0.0391193451         39.9010636
                     0.0310160393        -95.5159325       0.0013733716         143.551095        0.111882345         -164.29798      0.00178310924         143.998566
                    0.00213416483          144.58666       0.0391193588         39.9010312      0.00178310884         143.998568       0.0877123453         129.351813

         190000000       0.114007998        -170.346197       0.0018116099         136.876121       0.0314041522        -108.637374      0.00224540529         137.182891
                    0.00181161035         136.876124       0.0920468056         120.473882      0.00144457416         136.260025       0.0403942614         39.1394712
                     0.0314041651        -108.637368      0.00144457419          136.26002        0.113919249        -170.459837      0.00187517118         136.679642
                    0.00224540525         137.182884       0.0403942771         39.1394339      0.00187517075         136.679648       0.0919837387         120.484613

         200000000        0.11525144        -176.492943       0.0018978232         129.603904       0.0319854312        -122.081292      0.00235117868         129.790074
                    0.00189782369         129.603906       0.0958731058         111.907167      0.00151297648         128.978888       0.0417476459         38.5044936
                     0.0319854441        -122.081287      0.00151297648         128.978883        0.115155024        -176.610501      0.00196320515         129.374201
                    0.00235117861         129.790066       0.0417476626         38.5044507      0.00196320476         129.374211         0.09577095         111.916058

         210000000       0.115794301         177.334763      0.00198037502         122.344624        0.032819987        -135.700002      0.00245140821         122.415629
                    0.00198037553         122.344623       0.0993127133         103.632626      0.00157850568         121.712165       0.0432116759         37.9326156
                     0.0328199996        -135.699999      0.00157850567          121.71216        0.115690865           177.2135      0.00204715011         122.088019
                     0.0024514081         122.415621       0.0432116923         37.9325669      0.00204714979         122.088031       0.0991692755         103.639162

         220000000       0.115541755         171.112563      0.00205900038         115.113532         0.03396285        -149.351277      0.00254568687         115.079013
                    0.00205900089          115.11353         0.10226205         95.6458767      0.00164097119         114.474636       0.0448156952         37.3885569
                      0.033962862        -149.351275      0.00164097116         114.474632        0.115432116         170.987773      0.00212674825         114.837381
                    0.00254568672         115.079004       0.0448157096         37.3885035      0.00212674802         114.837394        0.102075488         95.6498535

         230000000       0.114402333         164.866688      0.00213338145         107.933656       0.0354474945        -162.896706      0.00263343799         107.806466
                    0.00213338193         107.933653        0.104461961         87.8948566      0.00170015616         107.289019       0.0465721147         36.8522958
                     0.0354475058        -162.896706      0.00170015612         107.289015        0.114287432         164.738554      0.00220168175          107.64619
                     0.0026334378         107.806457       0.0465721251         36.8522394      0.00220168162         107.646203        0.104230959         87.8961418

         240000000       0.112568772         158.575272      0.00220373778         100.801895       0.0372557102        -176.183577      0.00271511501         100.595964
                    0.00220373823         100.801892        0.106124753         80.3736142      0.00175622637          100.15168       0.0484891996         36.2521312
                     0.0372557205        -176.183577      0.00175622631         100.151676        0.112449669         158.443992      0.00227226318         100.511496
                    0.00271511479         100.595955       0.0484892049         36.2520744      0.00227226313         100.511508        0.105848386         80.3724392

         250000000       0.109835016         152.165997      0.00227021446         93.7409371        0.039394494         170.884677        0.002790893         93.4774954
                    0.00227021487         93.7409334        0.106993633         73.1377298      0.00180932655         93.0843252       0.0505937845          35.562809
                     0.0393945032         170.884677      0.00180932648         93.0843223         0.10971288         152.031696       0.0023386832         93.4571144
                    0.00279089275         93.4774877       0.0505937841         35.5627546      0.00233868321         93.4571251        0.106671348         73.1346197

         260000000       0.106313717         145.689801      0.00233290154         86.7562879       0.0418120243         158.355865      0.00286091814         86.4565857
                    0.00233290191          86.756284        0.107089938         66.1061545      0.00185953911         86.0922448        0.052865556         34.7543987
                     0.0418120323         158.355865      0.00185953904         86.0922425        0.106189784         145.552693      0.00240110938         86.4885004
                    0.00286091788         86.4565788         0.05286555         34.7543494      0.00240110943         86.4885095        0.106721806         66.1017054

         270000000       0.102127991         139.142226       0.0023921921         79.8500462       0.0444456374         146.245386      0.00292586701         79.5364137
                    0.00239219241         79.8500424        0.106478916         59.2764526      0.00190717039         79.1770206        0.055286408         33.7949345
                     0.0444456442         146.245385      0.00190717032         79.1770189         0.10200357         139.002566      0.00246004568         79.6074012
                    0.00292586674         79.5364079       0.0552863975         33.7948924      0.00246004576         79.6074086        0.106065655         59.2715377

         280000000      0.0969772969         132.330933      0.00244889853           73.04527       0.0472822891         134.565648      0.00298700736         72.7511972
                    0.00244889878         73.0452665        0.104867012         52.7926619      0.00195288774           72.35979       0.0578824478         32.6615744
                     0.0472822946         134.565646      0.00195288768         72.3597889       0.0968537227         132.188834      0.00251641285         72.8378538
                    0.00298700711         72.7511925       0.0578824346         32.6615408      0.00251641294         72.8378596        0.104409479         52.7889447

