! Created Tue Feb 26 13:54:34 2019
# hz S ma R 50
! 4 Port Network Data from SP1.SP block
! freq  magS11  angS11  magS12  angS12  magS13  angS13  magS14  angS14  
!       magS21  angS21  magS22  angS22  magS23  angS23  magS24  angS24  
!       magS31  angS31  magS32  angS32  magS33  angS33  magS34  angS34  
!       magS41  angS41  magS42  angS42  magS43  angS43  magS44  angS44  
!     
                 0        0.03289799        -20.6518644        0.967537889        -5.47909517      0.00133396851         72.7801445     0.000271963261        -174.958728
                      0.967537888        -5.47909518       0.0325676833        -17.4429221     0.000271020559        -174.927123      0.00133328579         71.7364839
                    0.00133396743         72.7805668     0.000271245628        -174.936002       0.0329309474        -20.6671702        0.967528872        -5.48168504
                   0.000271991867        -174.959868      0.00133318867         71.7494933         0.96752887        -5.48168504       0.0325522745        -17.4780169

          10000000      0.0334939286        -17.8474039        0.966679951        -6.74061396      0.00349913996         73.9294882     0.000708439663        -122.604376
                      0.966679951        -6.74061396        0.032742141        -15.8591848     0.000708491606        -122.608951      0.00351938994          78.890944
                    0.00349913997         73.9294882     0.000708491587         -122.60895       0.0335028611        -17.8874065        0.966675264        -6.74192931
                   0.000708439647        -122.604375      0.00351938995         78.8909438        0.966675264        -6.74192931       0.0327497622        -15.8997236

          20000000      0.0366719377        -34.3533501        0.965086155        -13.4443308      0.00685278732         66.9440103       0.0012191478        -118.906882
                      0.965086155        -13.4443308       0.0337735336        -31.2878655      0.00121915662        -118.919896      0.00689971727         77.0983408
                    0.00685275363         66.9440007      0.00121916479        -118.919718       0.0366911526         -34.420324         0.96508282        -13.4470649
                    0.00121916511         -118.90705      0.00689972616         77.0984932         0.96508282        -13.4470649       0.0337878577        -31.3613184

          30000000      0.0409331274        -48.7098744        0.963434847        -20.1395094       0.0101075532         58.7650051      0.00173995418        -118.713519
                      0.963434847        -20.1395094       0.0347730175        -46.3601043      0.00173993182        -118.727163       0.0101923886         74.2552454
                     0.0101075508         58.7650015      0.00173992675        -118.727122       0.0409670239        -48.7911162        0.963431663        -20.1436908
                    0.00173995207        -118.713457       0.0101923969         74.2552336        0.963431663        -20.1436908       0.0347999414          -46.45875

          40000000      0.0461732688        -61.1245531        0.961467734        -26.8215839       0.0132269599         50.3325339      0.00229576153        -119.911971
                      0.961467734        -26.8215839       0.0360279728        -61.2061557       0.0022955756        -119.928996       0.0133465289         71.3155405
                     0.0132269583         50.3325501      0.00229557861        -119.929035       0.0462241146        -61.2119771        0.961464089        -26.8271871
                    0.00229576154        -119.911939       0.0133465246         71.3155501        0.961464089        -26.8271871       0.0360704507         -61.320766

          50000000       0.052152115        -71.9281181        0.959187471        -33.4892715       0.0161305722         41.5200643      0.00289402314        -122.407888
                      0.959187471        -33.4892715        0.037622594        -75.7787231      0.00289358866        -122.426439       0.0163113097         68.1228441
                     0.0161305724         41.5200796      0.00289358912        -122.426521       0.0522186254        -72.0158529         0.95918305        -33.4962904
                    0.00289402308        -122.407926       0.0163113066         68.1228624         0.95918305        -33.4962904       0.0376824071        -75.8990129

          60000000      0.0585228624        -81.6177107        0.956663343        -40.1423367       0.0188177558         32.5742957      0.00355218541        -125.727126
                      0.956663343        -40.1423367       0.0394894744        -90.2725462      0.00355142721        -125.745861       0.0190755427         65.0092121
                     0.0188177559         32.5742966      0.00355142649         -125.74588       0.0586033241        -81.7027147        0.956657828        -40.1507553
                    0.00355218548        -125.727215       0.0190755418         65.0092198        0.956657828        -40.1507553       0.0395671373        -90.3894441

          70000000      0.0652148627        -90.4156871         0.95388829        -46.7772388       0.0212238304         23.2488657      0.00427065617         -130.12132
                       0.95388829        -46.7772388       0.0417969884        -104.406529      0.00426953049        -130.139133       0.0216471762         61.7573457
                     0.0212238304         23.2488586      0.00426953117        -130.139101       0.0653063457        -90.4962933        0.953881494        -46.7870376
                    0.00427065593        -130.121311       0.0216471765          61.757344        0.953881494        -46.7870376       0.0418906002        -104.512798

          80000000       0.072021539        -98.5330043         0.95089979        -53.3927782       0.0233530431         13.7699237      0.00505361356        -135.196741
                       0.95089979        -53.3927782         0.04451766        -118.155474       0.0050521147          -135.2129       0.0240065037         58.6705587
                     0.0233530428         13.7699247      0.00505211426        -135.212884       0.0721210821         -98.608593        0.950891578        -53.4039312
                    0.00505361297        -135.196738        0.024006505         58.6705571        0.950891578        -53.4039312       0.0446243015        -118.246075

          90000000      0.0787783806        -106.318081        0.947781434        -59.9940386       0.0252026537          4.1275732         0.00590187        -140.874701
                      0.947781434        -59.9940386       0.0476336458        -131.664063      0.00590003735        -140.888912       0.0261625946         55.7606458
                     0.0252026537         4.12757508      0.00590003717        -140.888917       0.0788827774        -106.388328        0.947771811         -60.006515
                    0.00590186971        -140.874706       0.0261625946         55.7606456        0.947771811         -60.006515       0.0477494111        -131.735881

         100000000       0.085402855        -113.711985        0.944527796        -66.5754539       0.0267596711        -5.71660875      0.00680547612        -147.090142
                      0.944527796        -66.5754539       0.0511792653        -144.646452      0.00680338744        -147.102382       0.0281123736          53.065742
                     0.0267596714        -5.71661046      0.00680338734        -147.102373       0.0855085353        -113.776997        0.944516887        -66.5892235
                    0.00680547602        -147.090133       0.0281123731         53.0657407        0.944516887        -66.5892235       0.0512990999        -144.699059

         110000000      0.0918048124         -120.86248         0.94118325        -73.1303653       0.0280199696        -15.7901898      0.00775357099         -153.71974
                       0.94118325        -73.1303653       0.0551508672        -157.021027      0.00775117832        -153.727165       0.0298624282         50.6135174
                     0.0280199687        -15.7901993      0.00775117715        -153.727131       0.0919081821        -120.923408        0.941171077        -73.1453593
                    0.00775357098        -153.719696       0.0298624291         50.6135126        0.941171077        -73.1453593       0.0552702048        -157.056365

         120000000      0.0978508448        -127.864333         0.93779591        -79.6718147       0.0290176541        -26.1319722      0.00873998725        -160.765277
                       0.93779591        -79.6718147       0.0594565676         -168.99875      0.00873746615        -160.769602       0.0314524315         48.3861621
                     0.0290176499        -26.1319907      0.00873746446        -160.769538        0.097948204        -127.920807        0.937782905        -79.6880092
                    0.00873998902        -160.765178       0.0314524341         48.3861529        0.937782905        -79.6880092       0.0595697608         -169.01914

         130000000       0.103392592        -134.753165        0.934387824        -86.1975045         0.02977484        -36.7893523      0.00975197713        -168.142674
                      0.934387824        -86.1975045       0.0640676754         179.521053      0.00974950941        -168.145146       0.0329048853         46.4032749
                     0.0297748303        -36.7893783      0.00974950849        -168.145053        0.103480042         -134.80505        0.934374543        -86.2148802
                    0.00975198407         -168.14251       0.0329048895         46.4032613        0.934374542        -86.2148802       0.0641692051         179.512602

         140000000       0.108425832        -141.505425        0.930988426        -92.6998663       0.0303188281         -47.804115        0.010771219        -175.781398
                      0.930988426        -92.6998663       0.0687694426          168.61338       0.0107689959        -175.782991       0.0342377939         44.6735548
                     0.0303188115        -47.8041456       0.0107689972        -175.782874        0.108499395        -141.552795        0.930975499        -92.7184118
                     0.0107712357        -175.781167       0.0342377996          44.673537        0.930975499        -92.7184119       0.0688540521         168.613684

         150000000         0.1129005        -148.211768        0.927625584         -99.187649       0.0307046624        -59.2001914       0.0117891746         176.375207
                      0.927625584         -99.187649       0.0736074527         158.166559        0.011787392         176.373628       0.0354936972         43.1663259
                     0.0307046384        -59.2002232       0.0117873968         176.373763        0.112956139        -148.254723        0.927613712        -99.2073612
                      0.011789206         176.375499       0.0354937045         43.1663045        0.927613712        -99.2073613       0.0736703585         158.172852

         160000000       0.116682891        -154.871796        0.924325741        -105.662237       0.0309910005        -71.0212746       0.0127922196         168.368226
                      0.924325742        -105.662237       0.0785018465         148.145482       0.0127910776         168.365884       0.0367078862         41.8787029
                     0.0309909692        -71.0213045       0.0127910869          168.36603        0.116716535        -154.910536        0.924315683         -105.68312
                     0.0127922703         168.368566       0.0367078955         41.8786783        0.924315682         -105.68312       0.0785386698         148.155428

         170000000       0.119697807        -161.483268        0.921141671        -112.115642       0.0312393928        -83.2875001       0.0137610788         160.254187
                      0.921141671        -112.115642       0.0831749377         138.567441       0.0137607691         160.250356       0.0379023664         40.8077537
                     0.0312393553        -83.2875257       0.0137607834         160.250508        0.119705571        -161.518041         0.92113415        -112.137717
                     0.0137611527          160.25456       0.0379023779         40.8077255        0.921134149        -112.137717       0.0831818181         138.579005

         180000000       0.122006444        -168.078667        0.918061681        -118.558418       0.0315270268        -95.9692914       0.0146904969         152.061198
                      0.918061681        -118.558418       0.0877390314         129.340101        0.014691205         152.055135       0.0391193451         39.9010636
                     0.0315269843        -95.9693112       0.0146912244         152.055287        0.121984301        -168.109799        0.918057424        -118.581707
                      0.014690596         152.061588       0.0391193588         39.9010312        0.918057423        -118.581707       0.0877123453         129.351813

         190000000       0.123479664        -174.690039        0.915113729        -124.990439       0.0319349368        -109.029926       0.0155686981         143.831098
                      0.915113729        -124.990439       0.0920468056         120.473882       0.0155705759         143.822073       0.0403942614         39.1394712
                     0.0319348908        -109.029939       0.0155706004          143.82222        0.123424158        -174.717937        0.915113353        -125.014978
                     0.0155688232         143.831489       0.0403942771         39.1394339        0.915113351        -125.014978       0.0919837387         120.484613

         200000000       0.124053808         178.713125        0.912346567        -131.408143       0.0325377932        -122.399903       0.0163780415         135.594703
                      0.912346568        -131.408143       0.0958731058         111.907167       0.0163812201          135.58199       0.0417476459         38.5044936
                     0.0325377451         -122.39991       0.0163812491         135.582129        0.123961451         178.688054        0.912350603        -131.433979
                     0.0163781912         135.595081       0.0417476626         38.5044507        0.912350601        -131.433979         0.09577095         111.916058

         210000000       0.123814891         172.091138        0.909731295        -137.818079       0.0333940414        -135.934355        0.017118779         127.379368
                      0.909731295        -137.818079       0.0993127133         103.632626       0.0171233362         127.362189       0.0432116759         37.9326156
                     0.0333939926        -135.934356       0.0171233689         127.362317        0.123682612         172.068326        0.909740108        -137.845265
                     0.0171189505          127.37972       0.0432116923         37.9325669        0.909740106        -137.845265       0.0991692755         103.639162

         220000000       0.122699953         165.418767        0.907274958        -144.222657       0.0345583867        -149.497224       0.0177830892         119.215054
                      0.907274959        -144.222657         0.10226205         95.6458767       0.0177890614         119.192601       0.0448156952         37.3885569
                     0.0345583386         -149.49722       0.0177890969         119.192716        0.122524905         165.397552        0.907288795        -144.251251
                     0.0177832781          119.21537       0.0448157096         37.3885035        0.907288793        -144.251251        0.102075488         95.6498535

         230000000       0.120604709         158.707191        0.905031421        -150.617976       0.0360641604        -162.954093       0.0183563693         111.139962
                      0.905031422        -150.617976        0.104461961         87.8948566       0.0183637337          111.11142       0.0465721147         36.8522958
                     0.0360641141        -162.954085       0.0183637709         111.111521        0.120384545         158.686857        0.905050313        -150.648043
                     0.0183565699         111.140234       0.0465721251         36.8522394         0.90505031        -150.648043        0.104230959         87.8961418

         240000000       0.117746871          151.94265        0.902930242        -157.011955       0.0378928215        -176.159231       0.0188474489         103.161974
                      0.902930242        -157.011955        0.106124753         80.3736142       0.0188561023          103.12646       0.0484891996         36.2521312
                      0.037892778         -176.15922         0.01885614         103.126546        0.117479739         151.922174        0.902954063        -157.043558
                     0.0188476547         103.162199       0.0484892049         36.2520744        0.902954061        -157.043558        0.105848386         80.3724392

         250000000       0.113930723         145.036244        0.901009703        -163.404336       0.0400517097         170.980905        0.019251699         95.3360236
                      0.901009704        -163.404336        0.106993633         73.1377298        0.019261468         95.2926617       0.0505937845          35.562809
                     0.0400516701         170.980918       0.0192615049         95.2927325        0.113615109         145.014312          0.9010381        -163.437542
                     0.0192519029         95.3361992       0.0505937841         35.5627546        0.901038097        -163.437542        0.106671348         73.1346197

         260000000       0.109285121         138.032174        0.899251855        -169.795841       0.0424898786         158.511419       0.0195675308         87.6745516
                      0.899251856        -169.795841        0.107089938         66.1061545        0.019578141         87.6224605        0.052865556         34.7543987
                     0.0424898437         158.511433       0.0195781759         87.6225163        0.108920361         138.007162        0.899284272         -169.83071
                     0.0195677255         87.6746783         0.05286555         34.7543494         0.89928427         -169.83071        0.106721806         66.1017054

         270000000       0.103926648         130.923702        0.897620474        -176.188309       0.0451448068         146.448358       0.0198043433         80.1968118
                      0.897620474        -176.188309        0.106478916         59.2764526       0.0198154101         80.1351583        0.055286408         33.7949345
                     0.0451447771         146.448372       0.0198154419            80.1352        0.103512986         130.893486        0.897656166        -176.224896
                     0.0198045218         80.1968928       0.0552863975         33.7948924        0.897656164        -176.224896        0.106065655         59.2715377

         280000000      0.0976345216         123.477429        0.896146689         177.415263         0.04800389         134.802752        0.019969058         72.9814465
                      0.896146689         177.415263        0.104867012         52.7926619       0.0199801185         72.9094655       0.0578824478         32.6615744
                     0.0480038659         134.802765       0.0199801459         72.9094942       0.0971722833         123.438438        0.896184711         177.376905
                     0.0199692136         72.9814873       0.0578824346         32.6615408         0.89618471         177.376905        0.104409479         52.7889447

