! Created Tue Feb 26 13:58:50 2019
# hz S ma R 50
! 4 Port Network Data from SP1.SP block
! freq  magS11  angS11  magS12  angS12  magS13  angS13  magS14  angS14  
!       magS21  angS21  magS22  angS22  magS23  angS23  magS24  angS24  
!       magS31  angS31  magS32  angS32  magS33  angS33  magS34  angS34  
!       magS41  angS41  magS42  angS42  magS43  angS43  magS44  angS44  
!     
                 0      0.0247872289        -23.8741406    1.26735964e-005        -124.762685       0.0013399694         70.8899358    8.12015906e-006        -123.261689
                  1.26745268e-005        -124.770135       0.0325676833        -17.4429221    8.13279226e-006        -123.228051      0.00133328579         71.7364839
                    0.00133994041         70.8985871     8.1328149e-006        -123.228287        0.024796416        -23.9427581     9.9084732e-006        -120.447935
                  8.12013628e-006        -123.261352      0.00133318867         71.7494933     9.9053312e-006        -120.409025       0.0325522745        -17.4780169

          10000000      0.0249608681         -21.876357    4.12025809e-005        -108.724061      0.00248524003         75.4396102    3.55438735e-005        -106.466568
                  4.12025809e-005        -108.724061        0.032742141        -15.8591848     3.5527143e-005        -106.499342      0.00351938994          78.890944
                    0.00248524003         75.4396102     3.5527143e-005        -106.499342       0.0249829571        -21.9250984     3.7396492e-005        -106.605356
                  3.55438746e-005         -106.46656      0.00351938995         78.8909438    3.73964854e-005        -106.605364       0.0327497622        -15.8997236

          20000000      0.0280859427        -41.1620073    7.85732314e-005        -110.920158      0.00481480302         69.6528302    6.80202586e-005        -109.754913
                  7.85732321e-005        -110.920157       0.0337735336        -31.2878655    6.79707831e-005        -109.787597      0.00689971727         77.0983408
                    0.00481480774         69.6527021    6.79707827e-005        -109.787597       0.0281289429        -41.2357795    7.15013328e-005        -109.830211
                  6.80202459e-005        -109.754917      0.00689972616         77.0984932    7.15013359e-005        -109.830213       0.0337878577        -31.3613184

          30000000      0.0325988836        -56.8993198     0.000115464605        -115.575636      0.00704617573         62.5087784     0.000100080107        -114.860981
                   0.000115464606        -115.575636       0.0347730175        -46.3601043    9.99859352e-005        -114.895064       0.0101923886         74.2552454
                    0.00704617135         62.5087924    9.99859354e-005        -114.895063       0.0326685213        -56.9657554     0.000105167589        -114.886014
                   0.000100080105        -114.860986       0.0101923969         74.2552336     0.000105167587        -114.886014       0.0347999414          -46.45875

          40000000      0.0379744548        -69.6815831     0.000152317387         -120.96824      0.00915611936          54.955186      0.00013206607        -120.520616
                   0.000152317388         -120.96824       0.0360279728        -61.2061557     0.000131912021        -120.554457       0.0133465289         71.3155405
                    0.00915612334         54.9552113      0.00013191202        -120.554457       0.0380744795        -69.7274874     0.000138773191        -120.507604
                   0.000132066067        -120.520617       0.0133465246         71.3155501     0.000138773191        -120.507602       0.0360704507         -61.320766

          50000000       0.043876558         -80.319338     0.000189324472        -126.715262       0.0111156014         47.1924277     0.000164140733        -126.450333
                   0.000189324473        -126.715262        0.037622594        -75.7787231     0.000163910237        -126.481216       0.0163113097         68.1228441
                     0.0111156037         47.1924289     0.000163910236        -126.481216       0.0440068818        -80.3401963     0.000172488283         -126.40858
                   0.000164140734        -126.450333       0.0163113066         68.1228624     0.000172488283         -126.40858       0.0376824071        -75.8990129

          60000000      0.0500031621        -89.6347862     0.000226653944        -132.682546       0.0129002591         39.2896333     0.000196450679        -132.553017
                   0.000226653944        -132.682546       0.0394894744        -90.2725462     0.000196127613        -132.577615       0.0190755427         65.0092121
                      0.012900259         39.2896289     0.000196127613        -132.577614       0.0501623729        -89.6295856     0.000206463392        -132.488898
                   0.000196450678        -132.553017       0.0190755418         65.0092198     0.000206463393        -132.488898       0.0395671373        -90.3894441

          70000000      0.0562398165        -97.9242752     0.000264359673        -138.805441       0.0144841206         31.2617112     0.000229043754        -138.781163
                   0.000264359673        -138.805441       0.0417969884        -104.406529     0.000228615506        -138.795985       0.0216471762         61.7573457
                     0.0144841164          31.261694     0.000228615506        -138.795985       0.0564259785         -97.894187     0.000240746935        -138.699283
                   0.000229043755        -138.781164       0.0216471765          61.757344     0.000240746936        -138.699283       0.0418906002        -104.512798

          80000000      0.0624496622         -105.50149     0.000302495352        -145.054656        0.015846196         23.1056867     0.000261969866        -145.114549
                   0.000302495352        -145.054656         0.04451766        -118.155474     0.000261428627        -145.116246       0.0240065037         58.6705587
                     0.0158461923         23.1056683     0.000261428627        -145.116245       0.0626603302        -105.448085     0.000275387697        -145.018335
                   0.000261969866        -145.114549        0.024006505         58.6705571     0.000275387697        -145.018336       0.0446243015        -118.246075

          90000000      0.0684866907        -112.741247     0.000341151116        -151.428834       0.0169827696         14.8215004     0.000295308866        -151.557101
                   0.000341151116        -151.428834       0.0476336458        -131.664063     0.000294653363        -151.542769       0.0261625946         55.7606458
                     0.0169827696          14.821498     0.000294653362        -151.542769       0.0687186288        -112.665608     0.000310466291        -151.449021
                   0.000295308865        -151.557101       0.0261625946         55.7606456     0.000310466291         -151.44902       0.0477494111        -131.735881

         100000000      0.0742961164        -119.591401     0.000380229838        -157.907514       0.0178742395         6.37006803     0.000328983556        -158.091775
                   0.000380229838        -157.907514       0.0511792653        -144.646452     0.000328220682        -158.059112       0.0281123736          53.065742
                     0.0178742396         6.37006709     0.000328220682        -158.059111        0.074545953        -119.495218     0.000345898073        -157.973735
                   0.000328983557        -158.091775       0.0281123731         53.0657407     0.000345898074        -157.973735       0.0512990999        -144.699059

         110000000      0.0798018542        -126.173036     0.000419773763        -164.482431       0.0185085114        -2.27462387     0.000363011037        -164.711408
                   0.000419773764        -164.482431       0.0551508672        -157.021027     0.000362154881        -164.658884       0.0298624282         50.6135174
                     0.0185085147        -2.27461354     0.000362155142         -164.65885       0.0800662145        -126.060111     0.000381706881        -164.585647
                    0.00036301104        -164.711409       0.0298624291         50.6135126     0.000381706859        -164.585647       0.0552702048        -157.056365

         120000000      0.0849141219        -132.619916     0.000459589782        -171.161251       0.0189064828        -11.1589237     0.000397260531         -171.42697
                   0.000459589781        -171.161252       0.0594565676         -168.99875     0.000396335271        -171.353749       0.0314524315         48.3861621
                     0.0189064934        -11.1589003     0.000396335354        -171.353736       0.0851884386        -132.490392     0.000417740478        -171.294038
                   0.000397260537        -171.426971       0.0314524341         48.3861529     0.000417740472        -171.294021       0.0595697608         -169.01914

         130000000      0.0894984219        -138.939933     0.000499512743        -177.931777       0.0190725376        -20.3534819     0.000431600374         -178.22781
                   0.000499512734        -177.931779       0.0640676754         179.521053     0.000430637566         -178.13399       0.0329048853         46.4032749
                     0.0190725588          -20.35345     0.000430637652         -178.13398       0.0897775945        -138.794216     0.000453856386        -178.087876
                   0.000431600385        -178.227812       0.0329048895         46.4032613      0.00045385658        -178.087864       0.0641692051         179.512602

         140000000      0.0935736211        -145.118224     0.000539296329          175.22984       0.0190104038         -29.929584     0.000465819368          174.90822
                   0.000539296306         175.229838       0.0687694426          168.61338     0.000464858056         175.021686       0.0342377939         44.6735548
                     0.0190104371        -29.9295507     0.000464858154         175.021695       0.0938521713        -144.957166     0.000489834116         175.055425
                   0.000465819381         174.908217       0.0342377996          44.673537     0.000489834354         175.055417       0.0688540521         168.613684

         150000000      0.0971222152        -151.226141     0.000578812679         168.323119        0.018756649        -39.9546089     0.000499813552         167.979386
                   0.000578812641         168.323118       0.0736074527         158.166559       0.0004988973          168.11077       0.0354936972         43.1663259
                     0.0187566941        -39.9545809     0.000498897414         168.110777       0.0973937231        -151.050542     0.000525563272         168.134513
                   0.000499813566         167.979382       0.0354937045         43.1663045     0.000525563464         168.134494       0.0736703585         158.172852

         160000000       0.100023471        -157.278952     0.000617840736         161.359396       0.0183423514        -50.5556652     0.000533400854         160.996436
                    0.00061784069         161.359396       0.0785018465         148.145482     0.000532576539          161.14335       0.0367078862         41.8787029
                     0.0183424069        -50.5556475     0.000532576668         161.143356         0.10028058        -157.089137     0.000560851453         161.160189
                   0.000533400865         160.996429       0.0367078955         41.8786783     0.000560851591         161.160166       0.0785386698         148.155428

         170000000       0.102233816         -163.25405     0.000656119587         154.364157       0.0178010584        -61.8735805     0.000566358774         153.984099
                   0.000656119554         154.364159       0.0831749377         138.567441     0.000565674584         154.143521       0.0379023664         40.8077537
                      0.017801122        -61.8735752     0.000565674728         154.143527        0.102468912        -163.048812     0.000595466971          154.15726
                   0.000566358779         153.984091       0.0379023779         40.8077255     0.000595467061         154.157236       0.0831818181         138.579005

         180000000       0.103810421        -169.194248     0.000693516768         147.338548       0.0171997497        -74.0071421     0.000598577154         146.942688
                   0.000693517042         147.338542       0.0877390314         129.340101     0.000598079921         147.111095       0.0391193451         39.9010636
                      0.017199819        -74.0071485     0.000598080101         147.111099        0.104025358        -168.970683     0.000629295647         147.126286
                    0.00059857716         146.942678       0.0391193588         39.9010312     0.000629295696         147.126262       0.0877123453         129.351813

         190000000       0.104655759        -175.108363     0.000729838062         140.298197       0.0166114608        -87.1027943     0.000629896556         139.887616
                   0.000729837907         140.298207       0.0920468056         120.473882     0.000629629101          140.06096       0.0403942614         39.1394712
                     0.0166115335        -87.1028088     0.000629629254         140.060964        0.104852423        -174.875005     0.000662169506         140.082401
                   0.000629896535         139.887605       0.0403942771         39.1394339     0.000662169522         140.082378       0.0919837387         120.484613

         200000000       0.104720614         179.030567      0.00076486891         133.264742       0.0161161337         -101.26307     0.000660134962         132.839929
                   0.000764868852         133.264752       0.0958731058         111.907167     0.000660132858         133.013852       0.0417476459         38.5044936
                     0.0161162076        -101.263086     0.000660133023         133.013856        0.104883488         179.270664     0.000693898434         133.046739
                   0.000660134929         132.839918       0.0417476626         38.5044507     0.000693898422         133.046717         0.09577095         111.916058

         210000000       0.104119466         173.190845     0.000798564633         126.242835       0.0158141536        -116.386568     0.000689254815         125.803601
                   0.000798564619         126.242842       0.0993127133         103.632626     0.000689544107         125.973594       0.0432116759         37.9326156
                     0.0158142266         -116.38658     0.000689544277         125.973596        0.104239749          173.43765     0.000724445239         126.023529
                   0.000689254765          125.80359       0.0432116923         37.9325669     0.000724445204         126.023508       0.0991692755         103.639162

         220000000       0.102773891         167.347839     0.000830812995         119.245598       0.0158049427        -132.264593     0.000717167996         118.791731
                   0.000830812985         119.245603         0.10226205         95.6458767     0.000717763849         118.953197       0.0448156952         37.3885569
                     0.0158050129        -132.264596     0.000717764016         118.953198        0.102845086         167.600722      0.00075371744         119.025708
                   0.000717167932         118.791719       0.0448157096         37.3885035     0.000753717386         119.025688        0.102075488         95.6498535

         230000000       0.100602327         161.533994     0.000861508772         112.294937       0.0161648675        -148.524717     0.000743787267         111.825601
                   0.000861508763         112.294941        0.104461961         87.8948566      0.00074469153         111.973885       0.0465721147         36.8522958
                     0.0161649333        -148.524709      0.00074469169         111.973886        0.100619039         161.792025     0.000781626066         112.074571
                   0.000743787187         111.825589       0.0465721251         36.8522394     0.000781625995         112.074553        0.104230959         87.8961418

         240000000       0.097813069         155.743669     0.000890728777         105.389131       0.0169190848        -164.587034     0.000769170557         104.902412
                    0.00089072877         105.389135        0.106124753         80.3736142      0.00077036808          105.03306       0.0484891996         36.2521312
                     0.0169191449        -164.587018      0.00077036823          105.03306       0.0977702756         156.004797     0.000808237964         105.167692
                   0.000769170464         104.902401       0.0484892049         36.2520744     0.000808237881         105.167676        0.105848386         80.3724392

         250000000      0.0942168322         149.898873      0.00091848978         98.5468168        0.018083246         179.981202     0.000793351807         98.0414221
                   0.000918489775         98.5468204        0.106993633         73.1377298     0.000794812148         98.1503388       0.0505937845          35.562809
                     0.0180832994         179.981221     0.000794812285         98.1503387       0.0941091577         150.161354     0.000833584369         98.3238335
                   0.000793351704         98.0414124       0.0505937841         35.5627546     0.000833584279         98.3238199        0.106671348         73.1346197

         260000000      0.0899301813          144.07771     0.000944862204         91.7759008        0.019597145         165.450724     0.000816374177         91.2489129
                   0.000944862203         91.7759039        0.107089938         66.1061545     0.000818047682         91.3324239        0.052865556         34.7543987
                     0.0195971911         165.450743     0.000818047803         91.3324235       0.0897537008          144.33901     0.000857721861         91.5497151
                   0.000816374069         91.2489045         0.05286555         34.7543494     0.000857721769         91.5497036        0.106721806         66.1017054

         270000000      0.0850867666         138.301058      0.00097001143         85.0793242       0.0213832046         151.912058     0.000838363683         84.5270682
                   0.000970011432         85.0793268        0.106478916         59.2764526     0.000840181586          84.582246        0.055286408         33.7949345
                     0.0213832431         151.912073     0.000840181691         84.5822453       0.0848384004         138.557667     0.000880792852         84.8476225
                   0.000838363578         84.5270612       0.0552863975         33.7948924     0.000880792763         84.8476132        0.106065655         59.2715377

         280000000       0.079392598         132.366054     0.000994143923         78.4739551       0.0234100824         139.359446     0.000859539976         77.8939745
                   0.000994143927         78.4739572        0.104867012         52.7926619     0.000861419611         77.9187948       0.0578824478         32.6615744
                     0.0234101132         139.359456     0.000861419696          77.918794       0.0790680557         132.614433     0.000903013331         78.2347679
                   0.000859539877         77.8939691       0.0578824346         32.6615408     0.000903013251         78.2347606        0.104409479         52.7889447

