! Created Wed Feb 27 11:57:34 2019
# hz S ma R 50
! 4 Port Network Data from SP1.SP block
! freq  magS11  angS11  magS12  angS12  magS13  angS13  magS14  angS14  
!       magS21  angS21  magS22  angS22  magS23  angS23  magS24  angS24  
!       magS31  angS31  magS32  angS32  magS33  angS33  magS34  angS34  
!       magS41  angS41  magS42  angS42  magS43  angS43  magS44  angS44  
!     
                 0      0.0246936001        -23.4441241    1.07291427e-005         -111.35972      0.00155082052          71.871604    8.26711778e-006        -112.056412
                  1.07291565e-005        -111.359915       0.0325886293        -17.1488065    8.25382474e-006        -112.256158      0.00153083939         70.5963976
                     0.0015507989         71.8779043    8.25382423e-006        -112.256164       0.0247361823        -23.4007025    1.07541441e-005        -111.263564
                  8.26711956e-006        -112.056419      0.00153073621         70.6076537    1.07541399e-005        -111.263515       0.0325854682        -17.1468931

          10000000      0.0248808046        -21.8459424    1.18890197e-005        -111.805409      0.00249446975         75.3390431    9.38199271e-006         -112.25337
                  1.18890197e-005        -111.805409       0.0327751725        -15.5707049    9.42440751e-006        -112.391728       0.0037088397         77.9134551
                    0.00249446975         75.3390431     9.4244075e-006        -112.391728       0.0248886268        -21.6844221    1.18967881e-005        -111.737736
                  9.38199271e-006         -112.25337      0.00370883972          77.913455    1.18967881e-005        -111.737736       0.0327964625         -15.576349

          20000000      0.0278883755        -41.1417287    2.24858588e-005        -112.586147      0.00482146949         71.2150348    1.77211765e-005        -113.003629
                  2.24858594e-005        -112.586147       0.0337830821        -30.7128836    1.77931355e-005        -113.086695      0.00726376719         76.0004358
                      0.004821469         71.2155534    1.77931363e-005        -113.086697       0.0278595409        -40.8709551    2.25012981e-005        -112.568848
                  1.77211771e-005        -113.003631      0.00726377572         76.0005818    2.25012973e-005        -112.568848       0.0338113829        -30.7288254

          30000000      0.0322465247        -56.9973634    3.29305834e-005        -116.672927       0.0070405227         65.3191344    2.59197689e-005        -117.122867
                  3.29305834e-005        -116.672927       0.0347698185         -45.539572    2.60201754e-005        -117.185508       0.0107077372         72.7766648
                    0.00704053511         65.3192035    2.60201755e-005        -117.185508       0.0321747431        -56.6634248    3.29499228e-005        -116.672709
                   2.5919769e-005        -117.122868       0.0107077398          72.776654    3.29499227e-005        -116.672708       0.0348071563        -45.5594641

          40000000      0.0374508742        -69.9483577    4.33585498e-005        -121.725508      0.00911838621         58.9278561      3.408555e-005        -122.213578
                  4.33585499e-005        -121.725509       0.0359740177        -60.1477687    3.42129978e-005        -122.265755       0.0139713156         69.3926213
                    0.00911839555          58.927873    3.42129976e-005        -122.265756       0.0373412972          -69.58288     4.3379433e-005        -121.734727
                  3.40855499e-005        -122.213579       0.0139713069         69.3926381     4.3379433e-005        -121.734726       0.0360249052        -60.1647252

          50000000      0.0431705321        -80.7675272    5.38139274e-005        -127.231698        0.011019853         52.3071822    4.22533248e-005        -127.751504
                  5.38139275e-005        -127.231698       0.0375165631        -74.5076244    4.24065108e-005        -127.795873       0.0169922122         65.7648415
                     0.0110198553         52.3071801    4.24065105e-005        -127.795873       0.0430314822        -80.3839622    5.38344323e-005        -127.246033
                  4.22533246e-005        -127.751504       0.0169922062         65.7648637    5.38344322e-005        -127.246033       0.0375819313        -74.5151077

          60000000      0.0491087438        -90.2624521    6.43360102e-005        -132.999805       0.0127146423         45.5511997    5.04558438e-005        -133.540921
                  6.43360103e-005        -132.999805       0.0393288962        -88.8256753    5.06340539e-005        -133.578321       0.0197475199         62.2365634
                     0.0127146409         45.5511992    5.06340539e-005        -133.578321        0.048950273        -89.8667163     6.4354894e-005        -133.016624
                  5.04558436e-005        -133.540921       0.0197475164         62.2365728    6.43548937e-005        -133.016624       0.0394082109        -88.8169821

          70000000      0.0551525344        -98.7194622    7.49421482e-005        -138.937166       0.0141711789         38.6889009    5.87096403e-005        -139.487716
                  7.49421479e-005        -138.937166       0.0415824934         -102.82497    5.89126436e-005        -139.518374       0.0222423115         58.6189764
                     0.0141711805         38.6888993    5.89126437e-005        -139.518374       0.0549869606        -98.3145164    7.49587385e-005        -138.954698
                  5.87096403e-005        -139.487716       0.0222423093         58.6189765    7.49587386e-005        -138.954698       0.0416736856        -102.795507

          80000000      0.0611674962        -106.450161    8.56564093e-005        -145.002042       0.0153631254         31.7269633    6.70392835e-005        -145.550602
                  8.56564096e-005        -145.002042       0.0442518246        -116.473564    6.72674164e-005        -145.574488       0.0244485779         55.2194054
                     0.0153631281         31.7269734    6.72674165e-005        -145.574488        0.061007944        -106.038455    8.56706611e-005        -145.018993
                  6.70392835e-005        -145.550603       0.0244485771         55.2194065    8.56706613e-005        -145.018993       0.0443523661        -116.420763

          90000000        0.06701551        -113.834096    9.65153874e-005        -151.187887       0.0162824383         24.6681248    7.54799328e-005        -151.725073
                  9.65153874e-005        -151.187887       0.0473180709        -129.909882    7.57342263e-005        -151.742086       0.0263738204         52.0691371
                     0.0162824387         24.6681233    7.57342262e-005        -151.742086       0.0668739305        -113.417995    9.65279929e-005        -151.203321
                   7.5479932e-005        -151.725072       0.0263738194         52.0691398    9.65279929e-005        -151.203321       0.0474243481         -129.83288

         100000000      0.0726410684        -120.814903     0.000107507872        -157.474947       0.0169041141          17.481005    8.40301528e-005        -157.993534
                   0.000107507872        -157.474947       0.0508250423        -142.842219    8.43122936e-005        -158.003644       0.0280172612         49.2257581
                     0.0169041144         17.4810052    8.43122936e-005        -158.003644       0.0725309622        -120.396693     0.000107520354        -157.488252
                  8.40301529e-005        -157.993534       0.0280172613         49.2257582     0.000107520354        -157.488252       0.0509331194        -142.742633

         110000000      0.0779662811        -127.518313     0.000118627047         -163.85775       0.0172187602         10.1200688    9.26918631e-005        -164.353439
                   0.000118627047        -163.857751       0.0547122342        -155.182447    9.30042488e-005        -164.356802       0.0293985338         46.7244832
                     0.0172187597         10.1200842    9.30042494e-005        -164.356802       0.0778993786        -127.100787     0.000118641766        -163.868731
                   9.2691864e-005        -164.353439       0.0293985356         46.7244795     0.000118641766        -163.868731       0.0548176937        -155.063099

         120000000      0.0829165405        -134.076385     0.000129867831        -170.340682       0.0172333704         2.56592561     0.000101467679        -170.812653
                    0.00012986783        -170.340683       0.0589681055        -167.133271     0.000101813374        -170.809782       0.0305588779         44.5901449
                     0.0172333696         2.56596612     0.000101813375        -170.809782       0.0829051297        -133.661806      0.00012988792        -170.349453
                   0.000101467679        -170.812655       0.0305588816         44.5901363     0.000129887922        -170.349452       0.0590671705        -166.997621

         130000000      0.0873593019        -140.498643     0.000141190747        -176.918578       0.0169472672        -5.27114553     0.000110332605        -177.368833
                   0.000141190745        -176.918579       0.0635661994        -178.594008     0.000110715067        -177.360471       0.0315422522         42.8650434
                     0.0169472674        -5.27107442     0.000110715069        -177.360472       0.0874152263        -140.089177     0.000141219861        -176.925576
                   0.000110332599        -177.368837       0.0315422578         42.8650295     0.000141219864        -176.925575         0.06365552        -178.446024

         140000000      0.0913141722        -146.767727     0.000152554014         176.428086       0.0163590805        -13.4888156     0.000119258198         175.994894
                    0.00015255401         176.428085       0.0682950393         170.515629      0.00011968094         176.007769       0.0323942028         41.5718072
                     0.0163590831         -13.488712     0.000119680942         176.007768       0.0914485385        -146.366183     0.000152596183         176.422139
                   0.000119258185         175.994896       0.0323942098         41.5717883      0.00015259619          176.42214       0.0683718607         170.672374

         150000000      0.0947687389        -152.955329     0.000163919223         169.695246       0.0155030139        -22.2262257     0.000128216406         169.271897
                   0.000163919216         169.695245       0.0731982038         160.080004     0.000128682993         169.288102       0.0331895756         40.6848075
                     0.0155030202        -22.2260901     0.000128682994         169.288099       0.0949912807        -152.564985     0.000163978512          169.68939
                   0.000128216401         169.271905        0.033189584         40.6847842     0.000163978522          169.68939       0.0732601058           160.2422

         160000000      0.0976047599        -159.078328     0.000175220985          162.88928       0.0144053817          -31.73705     0.000137156995         162.466944
                   0.000175220975         162.889279       0.0781958448         150.064157     0.000137670692         162.485157       0.0339988763         40.1909214
                      0.014405392        -31.7368837     0.000137670693         162.485154       0.0979238996        -158.702198      0.00017530121         162.882379
                   0.000137157007         162.466953       0.0339988862         40.1908941     0.000175301224         162.882378       0.0782408496         150.229037

         170000000      0.0997785257         -165.11189     0.000186397305          156.03307        0.013099432        -42.3907856     0.000146030827         155.601634
                   0.000186397293          156.03307       0.0830115898         140.490035     0.000146594245          155.62044       0.0348805762          40.057033
                     0.0130994456        -42.3905891     0.000146594246         155.620438        0.100201683        -164.753245     0.000186501811         156.023863
                   0.000146030855          155.60164       0.0348805878         40.0570015     0.000186501829          156.02386       0.0830383927         140.655559

         180000000       0.101361077        -171.094429      0.00019739753         149.127016       0.0116702533        -54.7207918     0.000154794795         148.675103
                   0.000197397516         149.127017       0.0877548589          131.25979     0.000155409887         148.692992       0.0359111407         40.1819427
                     0.0116702688        -54.7205637     0.000155409887         148.692989        0.101894006        -170.757334     0.000197528876         149.114158
                   0.000154794834         148.675104        0.035911154         40.1819065     0.000197528898         149.114155       0.0877623605         131.424093

         190000000       0.102258268        -177.048056     0.000208151948            142.183       0.0102333583        -69.6299219     0.000163390688           141.6989
                   0.000208151933         142.183002       0.0922792632         122.384885     0.000164058418         141.714371       0.0371534999         40.4818724
                     0.0102333731        -69.6296588     0.000164058418         141.714369        0.102904968        -176.736474     0.000208311617         142.165123
                   0.000163390736         141.698896       0.0371535144         40.4818309      0.00020831164         142.165117       0.0922669153         122.546558

         200000000       0.102401267         177.059564     0.000218597572           135.2228      0.00897466891        -88.3109842     0.000171764078         134.694555
                   0.000218597558         135.222802       0.0963550834          113.80618     0.000172484159         134.706148       0.0386457998         40.8653827
                     0.0089746794        -88.3106846     0.000172484159         134.706146        0.103164559         177.341327     0.000218785848         135.198562
                   0.000171764129         134.694547       0.0386458147         40.8653354     0.000218785872         135.198555       0.0963225266          113.96427

         210000000       0.101913896         171.204857     0.000228697546         128.252332      0.00820430931        -111.376439     0.000179878214         127.667608
                   0.000228697534         128.252335        0.100076015         105.511761     0.000180649152         127.673888       0.0404252934         41.1954885
                    0.00820431201         -111.37612     0.000180649152         127.673886        0.102794726         171.451316     0.000228913227         128.220441
                   0.000179878264         127.667595       0.0404253072         41.1954357     0.000228913249         128.220433        0.100023282         105.665283

         220000000       0.100722579          165.36148     0.000238393371         121.282634      0.00826187443        -137.211291     0.000187680008         120.629529
                    0.00023839336         121.282637        0.103336417         97.4968217     0.000188498881         120.629196       0.0425133017         41.3768759
                    0.00826186806           -137.211     0.000188498882         120.629194        0.101719871         165.566972     0.000238633609         121.241913
                   0.000187680053         120.629513       0.0425133128          41.376819     0.000238633629         121.241904        0.103263806         97.6450372

         230000000      0.0987427342         159.561109     0.000247646282         114.337301       0.0092867903        -161.720629     0.000195131022         113.604332
                   0.000247646273         114.337304        0.105871001         89.7122437     0.000195993376          113.59625       0.0449024713         41.3505679
                    0.00928677752        -161.720406     0.000195993378         113.596249       0.0998540432         159.719184     0.000247906658         114.286735
                    0.00019513106         113.604314       0.0449024781         41.3505092     0.000247906673         114.286724        0.105778932         89.8546963

         240000000      0.0961819528         153.806917     0.000256451718         107.419593       0.0111004071         178.007317     0.000202214909         106.595423
                   0.000256451712         107.419596        0.107888784         82.1454266     0.000203114789         106.578568       0.0475709088          41.026382
                     0.0111003921         178.007475      0.00020311479         106.578566        0.097402965         153.908985     0.000256726058         107.358351
                   0.000202214938         106.595404       0.0475709103         41.0263244     0.000256726068          107.35834        0.107777852         82.2814555

         250000000      0.0928567798         148.016428     0.000264764942         100.542754       0.0134589773         161.875416     0.000208889484          99.617498
                   0.000264764938         100.542757        0.109131944         74.8527044     0.000209819595         99.5911763       0.0505101688         40.3816398
                     0.0134589632         161.875527     0.000209819597         99.5911749       0.0941807656         148.054135      0.00026504526         100.470262
                   0.000208889504         99.6174795       0.0505101647          40.381586     0.000265045265         100.470251         0.10900307         74.9819313

         260000000      0.0888742465         142.276329     0.000272608788         93.7243089       0.0161375225         148.703436     0.000215158564         92.6887699
                   0.000272608786         93.7243116        0.109611913         67.7508088     0.000216110106           92.65249       0.0536620418         39.4084052
                     0.0161375107         148.703514     0.000216110108         92.6524887        0.090293352         142.237977     0.000272885751         93.6402846
                   0.000215158576         92.6887524       0.0536620325         39.4083576     0.000272885751         93.6402746        0.109465894         67.8727204

         270000000      0.0843640308         136.617465     0.000280017552         86.9729172       0.0189825103         137.486324     0.000221034646         85.8193927
                   0.000280017552         86.9729194        0.109387837         60.8329965     0.000221997516         85.7729562       0.0569701657         38.1058382
                     0.0189825015         137.486379     0.000221997518         85.7729549       0.0858683854         136.487864     0.000280280519         86.8774186
                   0.000221034651          85.819377       0.0569701526         38.1057984     0.000280280515         86.8774097        0.109225577         60.9469893

         280000000      0.0790446522         130.832584     0.000286951773         80.2969073       0.0219300203         127.631834     0.000226483534         79.0202182
                   0.000286951774          80.296909        0.108166783         54.2392616     0.000227447135         78.9639493       0.0604251333         36.4841166
                     0.0219300143         127.631873     0.000227447137         78.9639481        0.080622468         130.596896     0.000287188746         80.1904093
                   0.000226483533         79.0202049       0.0604251182         36.4840855     0.000287188739         80.1904018        0.107989407         54.3450251

