! Created Wed Feb 27 11:40:40 2019
# hz S ma R 50
! 4 Port Network Data from SP1.SP block
! freq  magS11  angS11  magS12  angS12  magS13  angS13  magS14  angS14  
!       magS21  angS21  magS22  angS22  magS23  angS23  magS24  angS24  
!       magS31  angS31  magS32  angS32  magS33  angS33  magS34  angS34  
!       magS41  angS41  magS42  angS42  magS43  angS43  magS44  angS44  
!     
                 0      0.0250560586        -22.7995812    5.02895909e-006         128.888991      0.00170357885         71.6522552    1.07975419e-005        -139.210066
                  5.03028049e-006         128.904418       0.0325886293        -17.1488065    3.05729847e-006         -170.36504      0.00153083939         70.5963976
                     0.0017035529         71.6590673    3.05733637e-006        -170.365152        0.025071094         -22.792095    1.25065883e-005         -155.65461
                  1.07975057e-005        -139.209862      0.00153073621         70.6076537    1.25001532e-005        -155.637671       0.0325854682        -17.1468931

          10000000      0.0252470084        -20.8343748     2.6318875e-005        -109.689452      0.00284827956         75.2750529    3.69136869e-005        -111.993483
                   2.6318875e-005        -109.689452       0.0327751725        -15.5707049    2.90687775e-005        -107.058537       0.0037088397         77.9134551
                    0.00284827956         75.2750529    2.90687775e-005        -107.058537       0.0252763065        -20.8090548    3.64826648e-005        -117.792897
                   3.6913677e-005        -111.993489      0.00370883972          77.913455    3.64826649e-005        -117.792897       0.0327964625         -15.576349

          20000000      0.0279929909         -39.634273    5.04733465e-005        -111.291344      0.00551339717         71.1748612    7.03818424e-005        -112.433828
                  5.04733474e-005        -111.291343       0.0337830821        -30.7128836    5.64490917e-005        -109.905372      0.00726376719         76.0004358
                    0.00551340157          71.174748    5.64490914e-005        -109.905372       0.0280219797        -39.6041698    6.75532924e-005        -115.612633
                  7.03818418e-005        -112.433826      0.00726377572         76.0005818    6.75532916e-005        -115.612633       0.0338113829        -30.7288254

          30000000      0.0320180948        -55.4200802    7.42972071e-005        -115.826952      0.00804838483         65.2196863     0.000103481056        -116.533893
                  7.42972068e-005        -115.826952       0.0347698185         -45.539572    8.33867681e-005        -115.027328       0.0107077372         72.7766648
                    0.00804838032         65.2196955    8.33867673e-005        -115.027328       0.0320467068        -55.3841197    9.87795672e-005        -118.778893
                   0.000103481055        -116.533893       0.0107077398          72.776654    9.87795673e-005        -118.778893       0.0348071563        -45.5594641

          40000000       0.036891866        -68.5499147    9.81053311e-005        -121.162092       0.0104092411         58.7486053     0.000136560675        -121.645283
                  9.81053311e-005        -121.162092       0.0359740177        -60.1477687     0.000110196225        -120.762372       0.0139713156         69.3926213
                     0.0104092454         58.7486236     0.000110196223        -120.762372       0.0369208241        -68.5102481     0.000130061399        -123.447341
                   0.000136560675        -121.645282       0.0139713069         69.3926381     0.000130061399        -123.447341       0.0360249052        -60.1647252

          50000000      0.0423148018        -79.6529553     0.000122079449        -126.865324       0.0125516552          52.042055     0.000169807208        -127.210692
                    0.00012207945        -126.865324       0.0375165631        -74.5076244     0.000137030333        -126.770224       0.0169922122         65.7648415
                     0.0125516576         52.0420539     0.000137030331        -126.770223       0.0423452696        -79.6111218     0.000161493847        -128.763451
                   0.000169807207        -127.210692       0.0169922062         65.7648637     0.000161493847         -128.76345       0.0375819313        -74.5151077

          60000000      0.0480006222        -89.4667524     0.000146387463        -132.803354        0.014437424         45.1937475     0.000203404416         -133.04371
                   0.000146387463        -132.803355       0.0393288962        -88.8256753     0.000164028757        -132.944186       0.0197475199         62.2365634
                     0.0144374239         45.1937431     0.000164028757        -132.944186       0.0480332103        -89.4237321     0.000193224945         -134.43969
                   0.000203404415         -133.04371       0.0197475164         62.2365728     0.000193224945         -134.43969       0.0394082109        -88.8169821

          70000000       0.053846765        -98.2478262      0.00017109323        -138.916877       0.0160279385         38.2313662      0.00023742908        -139.059832
                    0.00017109323        -138.916877       0.0415824934         -102.82497     0.000191245332        -139.235784       0.0222423115         58.6189764
                     0.0160279337         38.2313528     0.000191245333        -139.235783       0.0538820122        -98.2046112     0.000225318233        -140.348058
                   0.000237429081        -139.059832       0.0222423093         58.6189765     0.000225318233        -140.348058       0.0416736856        -102.795507

          80000000      0.0597221218        -106.297304     0.000196254157        -145.181517       0.0172911866         31.1582874      0.00027196093        -145.221956
                   0.000196254157        -145.181517       0.0442518246        -116.473564     0.000218734997         -145.62559       0.0244485779         55.2194054
                     0.0172911819         31.1582729     0.000218734998         -145.62559       0.0597602375        -106.254542      0.00025784884        -146.429487
                   0.000271960932        -145.221956       0.0244485771         55.2194065      0.00025784884        -146.429487       0.0443523661        -116.420763

          90000000      0.0654870982        -113.995363     0.000221953081        -151.602056       0.0182148589         23.9693785     0.000307120637        -151.527584
                   0.000221953081        -151.602056       0.0473180709        -129.909882     0.000246579489        -152.119145       0.0263738204         52.0691371
                     0.0182148585         23.9693767     0.000246579489        -152.119145       0.0655277003        -113.953443     0.000290935138         -152.66917
                   0.000307120638        -151.527584       0.0263738194         52.0691398     0.000290935138         -152.66917       0.0474243481         -129.83288

         100000000       0.071092041        -121.282303     0.000248113177         -158.15761       0.0187712144         16.6282266     0.000342838731        -157.955014
                   0.000248113176         -158.15761       0.0508250423        -142.842219     0.000274729112        -158.700849       0.0280172612         49.2257581
                     0.0187712145         16.6282254     0.000274729113        -158.700849       0.0711349154        -121.241813     0.000324524558        -159.039059
                   0.000342838732        -157.955014       0.0280172613         49.2257582     0.000324524558        -159.039059       0.0509331194        -142.742633

         110000000       0.076458147        -128.285356     0.000274674733        -164.837789       0.0189516826         9.07175415     0.000379066474        -164.495381
                   0.000274674733         -164.83779       0.0547122342        -155.182447     0.000303148202        -165.364569       0.0293985338         46.7244832
                     0.0189516866         9.07176165     0.000303148462        -165.364529       0.0765040412        -128.246593     0.000358584079        -165.526498
                   0.000379066476        -164.495381       0.0293985356         46.7244795     0.000358584058        -165.526498       0.0548176937        -155.063099

         120000000      0.0815112287        -135.139181     0.000301591843        -171.653419       0.0187616345           1.268472     0.000415771246        -171.157628
                   0.000301591843         -171.65342       0.0589681055        -167.133271     0.000331820325        -172.122852       0.0305588779         44.5901449
                     0.0187616466         1.26848721     0.000331820409        -172.122836       0.0815586169        -135.103049     0.000393103482        -172.139123
                    0.00041577125        -171.157629       0.0305588816         44.5901363     0.000393103477        -172.139106       0.0590671705        -166.997621

         130000000      0.0861189898        -141.853424     0.000328728328         -178.59179       0.0182041175        -6.90055052     0.000452801743        -177.932449
                    0.00032872832        -178.591793       0.0635661994        -178.594008     0.000360651808        -178.968059       0.0315422522         42.8650434
                     0.0182041407        -6.90053519     0.000360651894        -178.968047        0.086166382        -141.820679     0.000427960403        -178.866988
                   0.000452801747        -177.932451       0.0315422578         42.8650295     0.000427960598        -178.866976         0.06365552        -178.446024

         140000000      0.0902995902        -148.411743     0.000355859811         174.373875       0.0172850864        -15.5827849     0.000489923492         175.203284
                    0.00035585979         174.373872       0.0682950393         170.515629     0.000389463444         174.118992       0.0323942028         41.5718072
                     0.0172851214        -15.5827794     0.000389463544         174.119003       0.0903454379        -148.383263      0.00046294687         174.312332
                   0.000489923493         175.203281       0.0323942098         41.5717883     0.000462947107         174.312323       0.0683718607         170.672374

         150000000      0.0940385118        -154.887526     0.000382876414         167.243838       0.0160494952         -25.006355     0.000527004388         168.247419
                    0.00038287638         167.243836       0.0731982038         160.080004     0.000418175294         167.134113       0.0331895756         40.6848075
                      0.016049541         -25.006369     0.000418175409         167.134122       0.0940807766        -154.864166     0.000497953799         167.396258
                   0.000527004386         168.247415        0.033189584         40.6847842     0.000497953991         167.396238       0.0732601058           160.2422

         160000000      0.0972151854        -161.298384      0.00040958095         160.032506         0.01454333        -35.5787503     0.000563805223         161.210659
                   0.000409580907         160.032506       0.0781958448         150.064157      0.00044663414         160.086847       0.0339988763         40.1909214
                     0.0145433847         -35.578791     0.000446634271         160.086855       0.0972510164         -161.28055      0.00053277145         160.394984
                   0.000563805212         161.210654       0.0339988862         40.1908941     0.000532771586          160.39496       0.0782408496         150.229037

         170000000      0.0997819516        -167.621597     0.000435722977         152.769858       0.0128361743        -47.9536839      0.00060003973         154.119431
                   0.000435722945         152.769859       0.0830115898         140.490035     0.000474635483         153.000836       0.0348805762          40.057033
                      0.012836236        -47.9537528     0.000474635629         153.000842       0.0998081636        -167.608121     0.000567137466         153.333827
                   0.000600039709         154.119426       0.0348805878         40.0570015     0.000567137551         153.333801       0.0830383927         140.655559

         180000000       0.101795893        -173.898647     0.000461183293         145.459467       0.0110801196        -63.1603949     0.000635543633         146.975335
                   0.000461183574         145.459459       0.0877548589          131.25979     0.000502077379         145.875285       0.0359111407         40.1819427
                     0.0110801868        -63.1604825     0.000502077561          145.87529        0.101818691        -173.886334     0.000600903007         146.213711
                   0.000635543615         146.975329        0.035911154         40.1819065     0.000600903047         146.213685       0.0877623605         131.424093

         190000000       0.103156452         179.859696     0.000485777443           138.1214      0.00952571968        -82.7860348     0.000670072401         139.795214
                   0.000485777282         138.121414       0.0922792632         122.384885     0.000528809383         138.725911       0.0371534999         40.4818724
                    0.00952579142        -82.7861063     0.000528809535         138.725916        0.103183292         179.862305     0.000633843624         139.050554
                   0.000670072343         139.795208       0.0371535144         40.4818309      0.00063384363          139.05053       0.0922669153         122.546558

         200000000       0.103806371         173.679748     0.000509284599         130.782236       0.0085910995        -108.037929     0.000703360474         132.602964
                   0.000509284532         130.782251       0.0963550834          113.80618     0.000554648524         131.573938       0.0386457998         40.8653827
                    0.00859117337        -108.037918     0.000554648687         131.573942        0.103826672         173.669129      0.00066570103          131.86732
                   0.000703360406         132.602958       0.0386458147         40.8653354     0.000665701006         131.867297       0.0963225266          113.96427

         210000000       0.103856781         167.534008     0.000531656429         123.449398      0.00877514377        -136.537964     0.000735309455          125.40482
                   0.000531656407         123.449408        0.100076015         105.511761     0.000579541803         124.423317       0.0404252934         41.1954885
                    0.00877521406        -136.537837     0.000579541968          124.42332        0.103866321         167.510041     0.000696373133         124.669909
                   0.000735309377         125.404814       0.0404253072         41.1954357     0.000696373082         124.669888        0.100023282         105.665283

         220000000       0.103225433         161.396291     0.000552775915         116.141264       0.0102343728        -162.457161     0.000765737786         118.216068
                   0.000552775899         116.141272        0.103336417         97.4968217     0.000603392792         117.288664       0.0425133017         41.3768759
                     0.0102344351         -162.45698     0.000603392953         117.288666        0.103222352         161.358131     0.000725682352         117.473414
                   0.000765737697         118.216062       0.0425133128          41.376819      0.00072568228         117.473395        0.103263806         97.6450372

         230000000       0.101819303         155.296413     0.000572510757          108.88528       0.0126793899         177.145357     0.000794468334         111.062103
                   0.000572510739         108.885286        0.105871001         89.7122437     0.000626094787         110.192239       0.0449024713         41.3505679
                     0.0126794444         177.145523      0.00062609494          110.19224        0.101802391         155.242702     0.000753445477          110.30238
                   0.000794468233         111.062097       0.0449024781         41.3505092     0.000753445391         110.302363        0.105778932         89.8546963

         240000000      0.0998375668          149.23762     0.000590920022          101.68122       0.0157191067         161.431802     0.000821521297         103.943842
                   0.000590920005         101.681226        0.107888784         82.1454266      0.00064766677         103.131258       0.0475709088          41.026382
                     0.0157191553         161.431931     0.000647666912         103.131258       0.0998057546         149.166296     0.000779652641         103.157528
                   0.000821521189         103.943837       0.0475709103         41.0263244     0.000779652545         103.157514        0.107777852         82.2814555

         250000000      0.0970924338         143.137157     0.000607996093         94.5561913        0.019120275         148.812694     0.000846820415         96.8832762
                   0.000607996079         94.5561966        0.109131944         74.8527044     0.000668127646         96.1286781       0.0505101688         40.3816398
                     0.0191203187         148.812786     0.000668127775          96.128678       0.0970445562          143.04592     0.000804225216         96.0614415
                   0.000846820303         96.8832721       0.0505101647          40.381586     0.000804225115         96.0614292         0.10900307         74.9819313

         260000000      0.0936795597         137.077276     0.000623766189         87.5203732       0.0227113738         138.098057     0.000870382421         89.8931261
                   0.000623766179          87.520378        0.109611913         67.7508088     0.000687470303         89.1904858       0.0536620418         39.4084052
                     0.0227114128          138.09812     0.000687470417         89.1904854       0.0936148569         136.963234     0.000827136385         89.0260851
                    0.00087038231         89.8931229       0.0536620325         39.4083576     0.000827136285         89.0260751        0.109465894         67.8727204

         270000000      0.0897183481         131.085316     0.000638353804         80.5794381       0.0263719216         128.586003     0.000892320275         82.9807095
                   0.000638353798         80.5794423        0.109387837         60.8329965     0.000705766336         82.3200936       0.0569701657         38.1058382
                     0.0263719554         128.586044     0.000705766434          82.320093       0.0896361989         130.944904     0.000848452423         82.0592565
                   0.000892320171         82.9807072       0.0569701526         38.1057984      0.00084845233         82.0592486        0.109225577         60.9469893

         280000000      0.0849300208         124.957065      0.00065194115         73.7623536       0.0300506501         119.925685     0.000912732024         76.1680435
                   0.000651941148         73.7623571        0.108166783         54.2392616     0.000723230134         75.5414164       0.0604251333         36.4841166
                     0.0300506783          119.92571     0.000723230214         75.5414158       0.0848297141         124.785919     0.000868274583         75.1844351
                    0.00091273193         76.1680421       0.0604251182         36.4840855     0.000868274501         75.1844292        0.107989407         54.3450251

