! Created Wed Feb 27 12:18:10 2019
# hz S ma R 50
! 4 Port Network Data from SP1.SP block
! freq  magS11  angS11  magS12  angS12  magS13  angS13  magS14  angS14  
!       magS21  angS21  magS22  angS22  magS23  angS23  magS24  angS24  
!       magS31  angS31  magS32  angS32  magS33  angS33  magS34  angS34  
!       magS41  angS41  magS42  angS42  magS43  angS43  magS44  angS44  
!     
                 0     0.00939067338   -3.28624664e-013    2.73709089e-008        0.506730387     0.000174657242   -2.35740206e-011    1.93001444e-008        0.443915345
                  2.73921834e-008         0.50650214       0.0325886293        -17.1488065    4.28231701e-008        0.506747844      0.00153083938         70.5963976
                    0.00017193761   -2.39611896e-011    4.28539081e-008         0.50632128      0.00936846293   -5.91947896e-013    3.09560649e-008        0.446566718
                  1.93118338e-008         0.44388539      0.00153073621         70.6076537    3.09268356e-008        0.447134899       0.0325854682        -17.1468931

          10000000      0.0103031747          5.2561897    4.18260556e-007         76.7363374      0.00129647443          77.443508    3.48348824e-007         77.5600979
                  4.18260536e-007          76.736337       0.0327751725        -15.5707049    5.79063006e-007         76.7402307       0.0037088397         77.9134551
                    0.00129647444         77.4435075    5.79063005e-007           76.74023       0.0102976254         5.47983946    4.70974273e-007         77.4414006
                  3.48348831e-007         77.5600977      0.00370883972          77.913455    4.70974231e-007         77.4413979       0.0327964625         -15.576349

          20000000      0.0110652353         8.81955283     7.8141136e-007         78.1014218      0.00261902876          79.488294    6.53061485e-007         78.6008047
                  7.81411335e-007         78.1014242       0.0337830821        -30.7128836    1.08290753e-006         78.1428033      0.00726376719         76.0004358
                    0.00261901778         79.4891337    1.08290751e-006         78.1428024       0.0110678685         9.28728913    8.83081186e-007         78.5547154
                  6.53061453e-007         78.6008067      0.00726377572         76.0005818    8.83081193e-007          78.554718       0.0338113829        -30.7288254

          30000000      0.0116585402         12.6905695    1.13687703e-006         77.8963068      0.00396087713         79.5794418    9.51299934e-007          78.249309
                  1.13687702e-006         77.8963046       0.0347698185         -45.539572    1.57681536e-006         77.9291532       0.0107077372         72.7766648
                    0.00396088067         79.5792827    1.57681538e-006         77.9291545       0.0116821496         13.3612252    1.28691311e-006         78.2179177
                  9.51299912e-007         78.2493087       0.0107077398          72.776654    1.28691306e-006         78.2179177       0.0348071563        -45.5594641

          40000000       0.012321294         16.1047075    1.48966286e-006         77.1802631      0.00530672004         79.4860385    1.24715686e-006         77.4452213
                  1.48966294e-006         77.1802653       0.0359740177        -60.1477687    2.06731175e-006         77.1869618       0.0139713156         69.3926213
                    0.00530671987          79.486016     2.0673116e-006         77.1869644       0.0123723839         16.9336918    1.68777281e-006         77.4066347
                   1.2471569e-006         77.4452216       0.0139713069         69.3926381    1.68777287e-006         77.4066312       0.0360249052        -60.1647252

          50000000      0.0130750853         18.9971348    1.84267171e-006         76.2021422      0.00662638467         78.6316432     1.5430371e-006         76.4087968
                  1.84267177e-006         76.2021421       0.0375165631        -74.5076244    2.55815989e-006         76.1754695       0.0169922122         65.7648415
                    0.00662638328         78.6316189    2.55815987e-006         76.1754725       0.0131583368          19.946983    2.08875733e-006          76.353124
                  1.54303712e-006         76.4087962       0.0169922062         65.7648637    2.08875729e-006         76.3531221       0.0375819313        -74.5151077

          60000000      0.0138815586         21.4951354    2.19820294e-006         75.0460784      0.00793632303         77.7099635    1.84088953e-006         75.2128871
                  2.19820292e-006         75.0460785       0.0393288962        -88.8256753    3.05234586e-006         74.9845082       0.0197475199         62.2365634
                    0.00793632202         77.7099484     3.0523458e-006         74.9845073       0.0140007427          22.535574    2.49238739e-006         75.1363106
                  1.84088953e-006         75.2128877       0.0197475164         62.2365728    2.49238745e-006         75.1363109       0.0394082109        -88.8169821

          70000000      0.0147527745         23.4088876    2.55719292e-006         73.7525724      0.00923727537         76.0937226    2.14152878e-006         73.8925899
                  2.55719299e-006         73.7525717       0.0415824934         -102.82497    3.55113134e-006         73.6569815       0.0222423115         58.6189764
                    0.00923727568         76.0937146    3.55113142e-006         73.6569795       0.0149096257         24.5179741    2.89975112e-006         73.7938174
                  2.14152878e-006         73.8925894       0.0222423093         58.6189765    2.89975121e-006         73.7938194       0.0416736856        -102.795507

          80000000      0.0156591443         25.0242526    2.92054245e-006         72.3376786       0.0105349734         74.4495384    2.44578861e-006         72.4604478
                  2.92054289e-006         72.3376767       0.0442518246        -116.473564    4.05568977e-006         72.2107177       0.0244485779         55.2194054
                     0.0105349701         74.4495412    4.05568986e-006         72.2107174       0.0158559677         26.1827428    3.31193331e-006         72.3400516
                  2.44578825e-006           72.46045       0.0244485771         55.2194065    3.31193332e-006         72.3400522       0.0443523661        -116.420763

          90000000      0.0166021554         26.2142168    3.28915283e-006         70.8053314       0.0118288406         72.7882228     2.7545016e-006         70.9175994
                  3.28915281e-006          70.805331       0.0473180709        -129.909882    4.56724209e-006         70.6506568       0.0263738204         52.0691371
                     0.0118288414          72.788226    4.56724209e-006         70.6506572       0.0168398281         27.4089631    3.73005756e-006          70.776918
                  2.75450158e-006         70.9175997       0.0263738194         52.0691398    3.73005756e-006          70.776918       0.0474243481         -129.83288

         100000000      0.0175682235         27.1884655    3.66250859e-006          69.166043       0.0131194347         71.1135867    3.06732937e-006         69.2725963
                  3.66250859e-006         69.1660429       0.0508250423        -142.842219    5.08511374e-006         68.9875683       0.0280172612         49.2257581
                     0.0131194343          71.113594    5.08511375e-006         68.9875683       0.0178481744         28.4079267    4.15367566e-006         69.1134799
                  3.06732937e-006         69.2725963       0.0280172613         49.2257582    4.15367566e-006         69.1134799       0.0509331194        -142.742633

         110000000      0.0185453042         27.7971813     4.0400846e-006         67.4270358       0.0144049601         69.4257899    3.38391123e-006          67.530869
                  4.04008489e-006         67.4270396       0.0547122342        -155.182447    5.60864537e-006         67.2287867       0.0293985338         46.7244832
                     0.0144049557         69.4258062    5.60864452e-006         67.2287786       0.0188674701         29.0367755    4.58233917e-006         67.3552971
                  3.38391144e-006         67.5308646       0.0293985356         46.7244795    4.58233945e-006         67.3552954       0.0548176937        -155.063099

         120000000      0.0195370167         28.2536016    4.42159141e-006         65.5863567       0.0156871905         67.7307304    3.70407554e-006         65.6886256
                  4.42159246e-006         65.5863647       0.0589681055        -167.133271    6.13749078e-006         65.3725216       0.0305588779         44.5901449
                     0.0156871819         67.7307601    6.13748691e-006         65.3725051       0.0199022849         29.5065356    5.01584622e-006         65.4988122
                  3.70407594e-006         65.6886111       0.0305588816         44.5901363    5.01584697e-006         65.4988037       0.0590671705        -166.997621

         130000000      0.0205338944         28.4607891    4.80589125e-006         63.6529588       0.0169655262         66.0317844    4.02693247e-006         63.7533629
                  4.80589357e-006         63.6529686       0.0635661994        -178.594008    6.67017169e-006         63.4274109       0.0315422522         42.8650434
                     0.0169655139         66.0318297    6.67016199e-006         63.4273978       0.0209420909         29.7245225    5.45304376e-006         63.5514153
                  4.02693279e-006         63.7533339       0.0315422578         42.8650295    5.45304488e-006          63.551394         0.06365552        -178.446024

         140000000      0.0215398936         28.5584445    5.19064093e-006          61.636286       0.0182404856         64.3285251    4.35055068e-006         61.7336859
                  5.19064494e-006         61.6362933       0.0682950393         170.515629    7.20361349e-006         61.4023459       0.0323942028         41.5718072
                      0.018240471         64.3285857    7.20359544e-006         61.4023575       0.0219916269         29.8287046    5.89140561e-006         61.5214462
                  4.35055042e-006         61.7336406       0.0323942098         41.5717883    5.89140666e-006         61.5214073       0.0683718607         170.672374

         150000000      0.0225406194         28.4653618    5.57492672e-006         59.5444824       0.0195113606         62.6226859    4.67416041e-006         59.6365428
                  5.57493266e-006         59.5444827       0.0731982038         160.080004    7.73662676e-006         59.3051817       0.0331895756         40.6848075
                      0.019511345         62.6227597    7.73659899e-006          59.305243       0.0230355998         29.7416254    6.32993314e-006         59.4157231
                  4.67415896e-006         59.6364827        0.033189584         40.6847842    6.32993338e-006         59.4156647       0.0732601058           160.2422

         160000000      0.0235466681         28.2918655    5.95681184e-006         57.3854411        0.020778789          60.914135    4.99612781e-006         57.4691073
                  5.95681963e-006         57.3854298       0.0781958448         150.064157     8.2666628e-006         57.1433498       0.0339988763         40.1909214
                     0.0207787739         60.9142189    8.26662563e-006         57.1434843       0.0240852911         29.5712775    6.76648652e-006         57.2411895
                  4.99612457e-006         57.4690364       0.0339988862         40.1908941    6.76648503e-006         57.2411128       0.0782408496         150.229037

         170000000      0.0245423525         27.9726682    6.33350541e-006         55.1749641       0.0220421029         59.2040634      5.314085e-006         55.2470745
                  6.33351511e-006          55.174938       0.0830115898         140.490035    8.79003677e-006         54.9320124       0.0348805762          40.057033
                     0.0220420894         59.2041534    8.78999181e-006         54.9322367       0.0251242407         29.2555332    7.19795296e-006         55.0131758
                   5.3140795e-006         55.2469987       0.0348805878         40.0570015    7.19794885e-006         55.0130847       0.0830383927         140.655559

         180000000      0.0255406498         27.5928896    6.70390625e-006         52.9199298       0.0233019036         57.4922093    5.62703464e-006         52.9767671
                  6.70391736e-006         52.9198883       0.0877548589          131.25979    9.30529922e-006         52.6777048       0.0359111407         40.1819427
                     0.0233018926         57.4923017    9.30524987e-006         52.6780255       0.0261660046         28.8772434    7.62302735e-006         52.7378381
                  5.62702662e-006         52.9766926        0.035911154         40.1819065    7.62301989e-006         52.7377382       0.0877623605         131.424093

         190000000      0.0265283964         27.1016348    7.06605274e-006         50.6356318       0.0245576664         55.7801673    5.93327149e-006         50.6732969
                  7.06606481e-006         50.6355747       0.0922792632         122.384885    9.80985786e-006         50.3951444       0.0371534999         40.4818724
                     0.0245576585         55.7802587    9.80980821e-006         50.3955591        0.027196743         28.3879713    8.03946707e-006          50.429967
                  5.93326093e-006         50.6732294       0.0371535144         40.4818309     8.0394558e-006         50.4298646       0.0922669153         122.546558

         200000000      0.0275167236         26.5636578    7.41714494e-006         48.3343481        0.025809828         54.0669102    6.23037603e-006         48.3492786
                  7.41715745e-006         48.3342766       0.0963550834          113.80618    1.03000109e-005          48.096014       0.0386457998         40.8653828
                     0.0258098232         54.0669977    1.02999653e-005         48.0965113       0.0282281004         27.8506524    8.44408883e-006         48.1018374
                  6.23036314e-006         48.3492228       0.0386458147         40.8653354    8.44407362e-006         48.1017388       0.0963225266          113.96427

         210000000      0.0284889201          25.940371    7.75687386e-006         46.0279398       0.0270578387         52.3529796    6.51797225e-006         46.0163251
                  7.75688629e-006         46.0278562        0.100076015         105.511761    1.07753626e-005         45.7918022       0.0404252934         41.1954885
                      0.027057837         52.3530611    1.07753251e-005         45.7923634       0.0292428725          27.228933    8.83640726e-006         45.7648605
                   6.5179575e-006         46.0162845       0.0404253072         41.1954357     8.8363884e-006         45.7647714        0.100023282         105.665283

         220000000      0.0294600833         25.2799381    8.08373059e-006         43.7286299       0.0283021938         50.6381986     6.7947016e-006          43.686726
                  8.08374245e-006         43.7285373        0.103336417         97.4968217    1.12339164e-005         43.4941221       0.0425133017         41.3768759
                     0.0283021947         50.6382725    1.12338902e-005         43.4947241       0.0302565267         26.5692159    9.21463617e-006         43.4309828
                  6.79468544e-006         43.6867016       0.0425133128          41.376819    9.21461406e-006          43.430907        0.103263806         97.6450372

         230000000      0.0304171927         24.5493077    8.39566298e-006         41.4522523       0.0295423907          48.923707    7.05876188e-006          41.376872
                  8.39567386e-006         41.4521541        0.105871001         89.7122437    1.16729617e-005         41.2181457       0.0449024713         41.3505679
                     0.0295423939         48.9237723    1.16729489e-005          41.218763       0.0312555705         25.8402333    9.57640526e-006         41.1161982
                  7.05874502e-006         41.3768641       0.0449024781         41.3505092    9.57638076e-006         41.1161388        0.105778932         89.8546963

         240000000      0.0313719631         23.7886994    8.69338418e-006         39.2021285       0.0307788438         47.2086031    7.31058068e-006         39.0900538
                  8.69339377e-006         39.2020284        0.107888784         82.1454266    1.20934546e-005         38.9669977       0.0475709088          41.026382
                     0.0307788487         47.2086594     1.2093456e-005         38.9676048       0.0322521115         25.0807723     9.9222903e-006         38.8236855
                   7.3105638e-006         39.0900613       0.0475709103         41.0263244    9.92226441e-006         38.8236438        0.107777852         82.2814555

         250000000      0.0323108068         22.9724698    8.97643043e-006         36.9999751       0.0320110642          45.493634    7.54969895e-006          36.848135
                  8.97643849e-006         36.9998768        0.109131944         74.8527044     1.2494789e-005         36.7614008       0.0505101688         40.3816398
                     0.0320110701         45.4936814    1.24948038e-005          36.761974       0.0332322046         24.2667196    1.02516939e-005         36.5747124
                  7.54968275e-006         36.8481554       0.0505101647          40.381586    1.02516678e-005         36.5746883         0.10900307         74.9819313

         260000000      0.0332462057         22.1315015    9.24441692e-006         34.8484513       0.0332394648          43.778214    7.77564631e-006         34.6545448
                  9.24442335e-006         34.8483583        0.109611913         67.7508088    1.28764615e-005          34.603741       0.0536620418         39.4084052
                     0.0332394712         43.7782528    1.28764878e-005           34.60426       0.0342086458         23.4276762    1.05640045e-005         34.3725125
                  7.77563139e-006         34.6545749       0.0536620325         39.4083576    1.05639792e-005         34.3725043        0.109465894         67.8727204

         270000000      0.0341649905         21.2449136    9.49846274e-006         32.7533654       0.0344635707         42.0629429    7.98920295e-006         32.5156382
                  9.49846754e-006         32.7532809        0.109387837         60.8329966    1.32399675e-005         32.4995233       0.0569701657         38.1058382
                      0.034463577         42.0629736     1.3240002e-005          32.499972       0.0351679755         22.5440688     1.0860262e-005         32.2232214
                  7.98918983e-006         32.5156743       0.0569701526         38.1057984    1.08602388e-005         32.2232263        0.109225577         60.9469893

         280000000       0.035079376         20.3375372    9.74002989e-006         30.7395231       0.0356837816         40.3473321    8.19156115e-006         30.4562189
                  9.74003317e-006           30.73945        0.108166783         54.2392616    1.35872314e-005         30.4721377       0.0604251333         36.4841166
                     0.0356837874         40.3473553    1.35872701e-005          30.472505       0.0361226811         21.6395888    1.11420387e-005         30.1507683
                  8.19155024e-006          30.456257       0.0604251182         36.4840855    1.11420185e-005         30.1507826        0.107989407         54.3450251

