! Created Wed Feb 27 12:23:10 2019
# hz S ma R 50
! 4 Port Network Data from SP1.SP block
! freq  magS11  angS11  magS12  angS12  magS13  angS13  magS14  angS14  
!       magS21  angS21  magS22  angS22  magS23  angS23  magS24  angS24  
!       magS31  angS31  magS32  angS32  magS33  angS33  magS34  angS34  
!       magS41  angS41  magS42  angS42  magS43  angS43  magS44  angS44  
!     
                 0     0.00937465507   -2.75652319e-013    4.39062647e-008        -179.499308     0.000176492405   -1.73379849e-011    3.47314047e-008        -179.540466
                  4.39065633e-008        -179.499296       0.0325886293        -17.1488065    5.18492293e-008        -179.500706      0.00153083938         70.5963976
                   0.000176119809   -1.73734415e-011    5.18397249e-008         -179.50078      0.00936435074   -3.88538687e-013    4.10009048e-008        -179.540207
                  3.47316032e-008        -179.540469      0.00153073621         70.6076537    4.10035062e-008        -179.540274       0.0325854682        -17.1468931

          10000000      0.0102477805         4.68482201    8.40347078e-007        -100.143576      0.00110568695         75.8505454    6.88098807e-007        -100.027086
                  8.40347075e-007        -100.143576       0.0327751725        -15.5707049    9.93670989e-007        -100.320895       0.0037088397         77.9134551
                    0.00110568696         75.8505448    9.93670984e-007        -100.320895       0.0102471474         4.77699414    8.14600754e-007        -100.202435
                  6.88098813e-007        -100.027086      0.00370883972          77.913455    8.14600761e-007        -100.202435       0.0327964625         -15.576349

          20000000      0.0109604487         7.95716898    1.60096012e-006         -99.561918       0.0022379314          78.600908    1.31177824e-006        -99.5548597
                  1.60096014e-006        -99.5619183       0.0337830821        -30.7128836    1.89178265e-006        -99.6251206      0.00726376719         76.0004358
                    0.00223793632         78.6003734    1.89178262e-006        -99.6251217       0.0109637557         8.11916709    1.55183753e-006        -99.6176615
                   1.3117783e-006        -99.5548619      0.00726377572         76.0005818    1.55183747e-006         -99.617661       0.0338113829        -30.7288254

          30000000      0.0114970009         11.6185722    2.34989879e-006        -100.141095      0.00339038277         79.0583033    1.92537644e-006        -100.209946
                  2.34989881e-006        -100.141095       0.0347698185         -45.539572    2.77647901e-006        -100.144664       0.0107077372         72.7766648
                    0.00339038108          79.058142    2.77647898e-006        -100.144664       0.0115063245         11.8441511    2.27745477e-006        -100.213219
                  1.92537649e-006        -100.209946       0.0107077398          72.776654    2.27745476e-006        -100.213219       0.0348071563        -45.5594641

          40000000      0.0120953342         14.8952244    3.09674677e-006        -101.087296      0.00454747315         79.2962436     2.5365111e-006        -101.214764
                  3.09674679e-006        -101.087296       0.0359740177        -60.1477687    3.65892748e-006        -101.049996       0.0139713156         69.3926213
                    0.00454747015         79.2962335    3.65892748e-006        -101.049997       0.0121131107         15.1747988    3.00032687e-006        -101.177003
                  2.53651106e-006        -101.214764       0.0139713069         69.3926381    3.00032685e-006        -101.177003       0.0360249052        -60.1647252

          50000000      0.0127790178         17.7140683    3.84747591e-006        -102.233656      0.00567944037         78.6468781    3.14996802e-006        -102.406454
                  3.84747593e-006        -102.233656       0.0375165631        -74.5076244     4.5460988e-006        -102.164106       0.0169922122         65.7648415
                    0.00567944059         78.6468729     4.5460988e-006        -102.164106       0.0128068443         18.0367607    3.72605092e-006        -102.336108
                    3.149968e-006        -102.406453       0.0169922062         65.7648637     3.7260509e-006        -102.336107       0.0375819313        -74.5151077

          60000000      0.0135107821         20.1897796    4.60685409e-006         -103.53044      0.00680257572         77.9207266    3.76966823e-006        -103.737242
                  4.60685409e-006        -103.530441       0.0393288962        -88.8256753    5.44356593e-006        -103.433033       0.0197475199         62.2365634
                    0.00680257586         77.9207143    5.44356592e-006        -103.433033       0.0135499807         20.5455211     4.4592083e-006        -103.638629
                  3.76966823e-006        -103.737242       0.0197475164         62.2365728     4.4592083e-006        -103.638629       0.0394082109        -88.8169821

          70000000      0.0143051438         22.1169629    5.37676866e-006        -104.953523      0.00791722609         76.3854992    4.39720596e-006        -105.184196
                  5.37676866e-006        -104.953523       0.0415824934         -102.82497    6.35358658e-006        -104.830836       0.0222423115         58.6189764
                    0.00791722499         76.3854945    6.35358659e-006        -104.830836       0.0143563558         22.4988865    5.20170429e-006         -105.05981
                  4.39720597e-006        -105.184196       0.0222423093         58.6189765     5.2017043e-006         -105.05981       0.0416736856        -102.795507

          80000000      0.0151323037         23.7762024     6.1588882e-006        -106.495745      0.00902921418         74.8187596    5.03413102e-006        -106.741431
                  6.15888819e-006        -106.495745       0.0442518246        -116.473564    7.27810276e-006        -106.349351       0.0244485779         55.2194054
                    0.00902921484         74.8187577    7.27810277e-006        -106.349351       0.0151963865         24.1774174    5.95535121e-006        -106.592753
                  5.03413103e-006        -106.741431       0.0244485771         55.2194065    5.95535122e-006        -106.592753       0.0443523661        -116.420763

          90000000      0.0159955411         25.0278995     6.9547554e-006        -108.158981       0.0101379356         73.2326273    5.68190622e-006         -108.41241
                   6.9547554e-006        -108.158981       0.0473180709        -129.909882    8.21894017e-006        -107.990083       0.0263738204         52.0691371
                     0.0101379355         73.2326231    8.21894018e-006        -107.990083       0.0160728135         25.4436885    6.72187934e-006        -108.240569
                  5.68190623e-006         -108.41241       0.0263738194         52.0691398    6.72187934e-006        -108.240569       0.0474243481         -129.83288

         100000000      0.0168807924         26.0812075    7.76277708e-006        -109.934129       0.0112439855         71.6314973    6.33949303e-006        -110.189543
                  7.76277707e-006        -109.934129       0.0508250423        -142.842219    9.17420725e-006        -109.743672       0.0280172612         49.2257581
                     0.0112439847         71.6314954    9.17420726e-006        -109.743672       0.0169717867         26.5073283    7.50005475e-006        -109.995405
                  6.33949304e-006        -110.189543       0.0280172613         49.2257582    7.50005475e-006        -109.995405       0.0509331194        -142.742633

         110000000      0.0177775248         26.7740214     8.5811844e-006        -111.814587       0.0123455762         70.0149351    7.00570972e-006        -112.067932
                  8.58118444e-006        -111.814588       0.0547122342        -155.182447    1.01418038e-005        -111.603398       0.0293985338         46.7244832
                      0.012345575         70.0149364    1.01418038e-005        -111.603398       0.0178823055         27.2091764    8.28846372e-006         -111.85224
                  7.00570975e-006        -112.067932       0.0293985356         46.7244795    8.28846375e-006         -111.85224       0.0548176937        -155.063099

         120000000      0.0186885518         27.3244632    9.40857634e-006        -113.802586       0.0134444985         68.3901857    7.67964441e-006        -114.051587
                  9.40857648e-006        -113.802588       0.0589681055        -167.133271    1.11200434e-005        -113.571293       0.0305588779         44.5901449
                     0.0134444973         68.3901894    1.11200435e-005        -113.571293       0.0188075046         27.7660209    9.08600395e-006        -113.814922
                  7.67964449e-006        -114.051587       0.0305588816         44.5901363    9.08600404e-006        -113.814922       0.0590671705        -166.997621

         130000000      0.0196053346         27.6274057    1.02417024e-005        -115.887742       0.0145401648         66.7608692    8.35887558e-006        -116.131863
                  1.02417026e-005        -115.887743       0.0635661994        -178.594008    1.21050458e-005        -115.636852       0.0315422522         42.8650434
                     0.0145401639         66.7608742     1.2105046e-005        -115.636852       0.0197384718         28.0743337    9.88978407e-006        -115.874667
                  8.35887576e-006        -116.131863       0.0315422578         42.8650296    9.88978423e-006        -115.874667         0.06365552        -178.446024

         140000000      0.0205313581         27.8266095    1.10747661e-005         -118.05727        0.015633122         65.1267198    9.03885719e-006        -118.297314
                  1.10747664e-005        -118.057272       0.0682950393         170.515629    1.30899295e-005        -117.787083       0.0323942028         41.5718072
                     0.0156331215         65.1267252    1.30899299e-005        -117.787083        0.020678975         28.2771593    1.06944058e-005         -118.01982
                  9.03885752e-006        -118.297314       0.0323942098         41.5717883     1.0694406e-005        -118.019821       0.0683718607         170.672374

         150000000      0.0214528579         27.8342365    1.19049459e-005        -120.301829       0.0167226601         63.4893801     9.7173517e-006        -120.539954
                  1.19049462e-005        -120.301831       0.0731982038         160.080004    1.40713251e-005        -120.012561       0.0331895756         40.6848075
                     0.0167226598         63.4893853    1.40713255e-005        -120.012562       0.0216149471         28.2881499    1.14971954e-005        -120.242316
                  9.71735221e-006        -120.539954        0.033189584         40.6847842    1.14971958e-005        -120.242317       0.0732601058           160.2422

         160000000      0.0223800838         27.7649418    1.27273438e-005        -122.610861       0.0178094634         61.8490018    1.03904257e-005        -122.850357
                  1.27273441e-005        -122.610863       0.0781958448         150.064157    1.50434159e-005        -122.302575       0.0339988763         40.1909214
                     0.0178094634         61.8490063    1.50434165e-005        -122.302576       0.0225568652         28.2210126    1.22934812e-005        -122.532584
                  1.03904264e-005        -122.850358       0.0339988862         40.1908941    1.22934817e-005        -122.532585       0.0782408496         150.229037

         170000000      0.0232977383         27.5482827    1.35353833e-005        -124.964595         0.01889285         60.2066194    1.10527514e-005         -125.20941
                  1.35353835e-005        -124.964598       0.0830115898         140.490035     1.5998403e-005        -124.637175       0.0348805762          40.057033
                     0.0188928502         60.2066232    1.59984036e-005        -124.637175       0.0234891804         28.0065898    1.30769446e-005        -124.871347
                  1.10527523e-005        -125.209412       0.0348805878         40.0570015    1.30769452e-005         -124.87135       0.0830383927         140.655559

         180000000      0.0242185975         27.2732532    1.43261708e-005        -127.354813       0.0199734769         58.5622325    1.17018387e-005         -127.60959
                  1.43261708e-005        -127.354816       0.0877548589          131.25979    1.69328496e-005        -127.008055       0.0359111407         40.1819427
                     0.0199734772         58.5622354    1.69328504e-005        -127.008056       0.0244248633         27.7329527    1.38446281e-005        -127.251009
                  1.17018399e-005        -127.609592        0.035911154         40.1819065    1.38446287e-005        -127.251012       0.0877623605         131.424093

         190000000      0.0251297132         26.8850994    1.50952401e-005        -129.763373       0.0210508132         56.9174497    1.23339457e-005        -130.033373
                    1.509524e-005        -129.763376       0.0922792632         122.384885    1.78414657e-005         -129.39695       0.0371534999         40.4818724
                     0.0210508136         56.9174518    1.78414665e-005        -129.396951       0.0253507324         27.3463174    1.45920982e-005        -129.653935
                  1.23339471e-005        -130.033376       0.0371535144         40.4818309    1.45920987e-005        -129.653939       0.0922669153         122.546558

         200000000      0.0260421497         26.4517043    1.58365716e-005        -132.174048       0.0221253444         55.2712925    1.29440463e-005        -132.464759
                  1.58365715e-005        -132.174051       0.0963550834          113.80618    1.87171414e-005         -131.78745       0.0386457998         40.8653828
                     0.0221253448         55.2712941    1.87171423e-005        -131.787451       0.0262780474         26.9138425    1.53134169e-005        -132.063961
                  1.29440477e-005        -132.464763       0.0386458147         40.8653354    1.53134173e-005        -132.063965       0.0963225266         113.964271

         210000000      0.0269392884         25.9315799    1.65495757e-005        -134.574252       0.0231964718         53.6240761    1.35313652e-005        -134.891439
                  1.65495754e-005        -134.574254        0.100076015         105.511761    1.95591862e-005         -134.16694       0.0404252934         41.1954885
                     0.0231964722         53.6240771    1.95591871e-005        -134.166941       0.0271900555         26.3949327    1.60076714e-005        -134.468751
                   1.3531366e-005        -134.891445       0.0404253072         41.1954357     1.6007671e-005        -134.468757        0.100023282         105.665283

         220000000      0.0278362706         25.3753887    1.72315891e-005        -136.949407       0.0242647763         51.9758908    1.40934613e-005        -137.299143
                  1.72315888e-005        -136.949409        0.103336417         97.4968217    2.03644836e-005        -136.520722       0.0425133017         41.3768759
                     0.0242647766         51.9758915    2.03644845e-005        -136.520722       0.0281020066         25.8395203    1.66719995e-005        -136.853931
                  1.40934628e-005        -137.299149       0.0425133128         41.3768191    1.66719995e-005        -136.853936        0.103263806         97.6450373

         230000000      0.0287200911         24.7477411    1.78790899e-005         -139.28002       0.0253297357         50.3278639    1.46272273e-005        -139.668355
                  1.78790896e-005        -139.280022        0.105871001         89.7122437    2.11289092e-005        -138.829145       0.0449024713         41.3505679
                      0.025329736         50.3278643    2.11289101e-005        -138.829146       0.0290007347         25.2129112    1.73027585e-005        -139.199838
                  1.46272288e-005         -139.66836       0.0449024781         41.3505092    1.73027584e-005        -139.199843        0.105778932         89.8546963

         240000000      0.0296025787         24.0909417    1.84942722e-005        -141.563448       0.0263918244         48.6791346    1.51339679e-005        -141.996168
                  1.84942719e-005         -141.56345        0.107888784         82.1454266    2.18550954e-005        -141.089579       0.0475709088         41.0263821
                     0.0263918246         48.6791347    2.18550962e-005         -141.08958       0.0298982114         24.5568227    1.79015196e-005        -141.503576
                  1.51339694e-005        -141.996173       0.0475709103         41.0263244    1.79015193e-005         -141.50358        0.107777852         82.2814555

         250000000      0.0304701025         23.3776025     1.9078165e-005        -143.776185       0.0274505112         47.0303666    1.56141295e-005        -144.259286
                  1.90781647e-005        -143.776186        0.109131944         74.8527044    2.25443533e-005        -143.278435       0.0505101688         40.3816398
                     0.0274505114         47.0303667     2.2544354e-005        -143.278436       0.0307806934          23.844468    1.84688858e-005        -143.741776
                  1.56141308e-005        -144.259291       0.0505101647          40.381586    1.84688854e-005         -143.74178         0.10900307         74.9819313

         260000000       0.031335317         22.6401911    1.96311898e-005        -145.914517       0.0285062891         45.3810778    1.60676263e-005        -146.453137
                  1.96311894e-005        -145.914517        0.109611913         67.7508088    2.31972458e-005        -145.391941       0.0536620418         39.4084052
                     0.0285062892         45.3810777    2.31972465e-005        -145.391942       0.0316609328         23.1077871    1.90048074e-005        -145.909806
                  1.60676275e-005        -146.453141       0.0536620325         39.4083576    1.90048069e-005        -145.909809        0.109465894         67.8727204

         270000000      0.0321849675          21.856489    2.01572233e-005        -147.973515       0.0295586338         43.7317776    1.64971154e-005        -148.571847
                   2.0157223e-005        -147.973516        0.109387837         60.8329966    2.38184268e-005          -147.4252       0.0569701657         38.1058382
                     0.0295586339         43.7317775    2.38184274e-005        -147.425201       0.0325255847           22.32508    1.95124829e-005         -148.00181
                  1.64971165e-005        -148.571851       0.0569701526         38.1057984    1.95124824e-005        -148.001812        0.109225577         60.9469894

         280000000      0.0330314807         21.0525545    2.06633084e-005        -149.930097       0.0306080316         42.0820822    1.69077777e-005        -150.592173
                  2.06633082e-005        -149.930098        0.108166783         54.2392616    2.44164141e-005        -149.355187       0.0604251333         36.4841166
                     0.0306080316         42.0820822    2.44164146e-005        -149.355187       0.0333871523         21.5219389    1.99981918e-005        -149.994615
                  1.69077785e-005        -150.592177       0.0604251182         36.4840855    1.99981914e-005        -149.994617        0.107989407         54.3450251

