! Created Wed Feb 27 11:25:18 2019
# hz S ma R 50
! 4 Port Network Data from SP1.SP block
! freq  magS11  angS11  magS12  angS12  magS13  angS13  magS14  angS14  
!       magS21  angS21  magS22  angS22  magS23  angS23  magS24  angS24  
!       magS31  angS31  magS32  angS32  magS33  angS33  magS34  angS34  
!       magS41  angS41  magS42  angS42  magS43  angS43  magS44  angS44  
!     
                 0      0.0328762211        -20.2879131        0.967500053        -5.45222584       0.0015452646         73.0282997     0.000330082388        -172.531982
                      0.967500052        -5.45222584       0.0325886293        -17.1488065      0.00032913505        -172.496304      0.00153083939         70.5963976
                    0.00154526355         73.0286644     0.000329358146        -172.505253       0.0329157318        -20.2634232        0.967476576        -5.45638725
                   0.000330110742        -172.533128      0.00153073621         70.6076537        0.967476573        -5.45638725       0.0325854682        -17.1468931

          10000000      0.0334809535        -17.4881833        0.966641576         -6.7137146      0.00371007636         73.9978498     0.000754602491        -125.545031
                      0.966641576         -6.7137146       0.0327751725        -15.5707049     0.000754684429        -125.544816       0.0037088397         77.9134551
                    0.00371007637         73.9978498     0.000754684409        -125.544815       0.0334975316        -17.4895924        0.966622431        -6.71659932
                   0.000754602473         -125.54503      0.00370883972          77.913455        0.966622431        -6.71659932       0.0327964625         -15.576349

          20000000      0.0365061782        -33.7424693        0.965054951        -13.3912513      0.00725251234         67.9165439      0.00128115648        -120.201218
                      0.965054951        -13.3912513       0.0337830821        -30.7128836      0.00128130489        -120.207123      0.00726376719         76.0004358
                    0.00725247863         67.9165388      0.00128131296        -120.206944       0.0365197019        -33.7535627        0.965035157        -13.3967838
                    0.00128117388        -120.201359      0.00726377572         76.0005818        0.965035157        -13.3967838       0.0338113829        -30.7288254

          30000000      0.0405577582        -47.9896019         0.96341097        -20.0601232       0.0106705139         60.3862593       0.0018257414         -119.36941
                      0.963410971        -20.0601232       0.0347698185         -45.539572      0.00182606859        -119.377915       0.0107077372         72.7766648
                     0.0106705112         60.3862568      0.00182606644        -119.377907       0.0405667791        -48.0126713         0.96339083        -20.0683389
                    0.00182574221         -119.36938       0.0107077398          72.776654         0.96339083        -20.0683389       0.0348071563        -45.5594641

          40000000      0.0455688082        -60.4075871        0.961454118         -26.715909       0.0139129505         52.5283794      0.00240954884        -120.213685
                      0.961454118        -26.7159091       0.0359740177        -60.1477687      0.00241004787        -120.225265       0.0139713156         69.3926213
                      0.013912949         52.5283961      0.00241005304         -120.22532       0.0455721568        -60.4439727        0.961433734        -26.7268128
                      0.002409551        -120.213672       0.0139713069         69.3926381        0.961433734        -26.7268128       0.0360249052        -60.1647252

          50000000      0.0513156986        -71.2771654        0.959187812        -33.3573564        0.016886617         44.2711033      0.00303942981        -122.478013
                      0.959187812        -33.3573564       0.0375165631        -74.5076244      0.00304016772        -122.493945       0.0169922122         65.7648415
                     0.0168866173         44.2711186      0.00304016963        -122.494024       0.0513120034         -71.327148        0.959167203        -33.3709613
                     0.0030394312         -122.47805       0.0169922062         65.7648637        0.959167203        -33.3709613       0.0375819313        -74.5151077

          60000000      0.0574643199         -81.063163        0.956681051        -39.9843115       0.0195820284         35.8524928      0.00373293106        -125.626534
                      0.956681051        -39.9843116       0.0393288962        -88.8256753      0.00373391732        -125.647881       0.0197475199         62.2365634
                     0.0195820284         35.8524942      0.00373391781        -125.647892       0.0574528655        -81.1268476         0.95666016          -40.00062
                    0.00373293234        -125.626611       0.0197475164         62.2365728         0.95666016          -40.00062       0.0394082109        -88.8169821

          70000000      0.0639535059         -89.969138        0.953926704        -46.5932827       0.0219206802         27.0387677      0.00449115742         -129.85994
                      0.953926704        -46.5932827       0.0415824934         -102.82497       0.0044923803        -129.887002       0.0222423115         58.6189764
                     0.0219206799         27.0387611      0.00449238214        -129.886963       0.0639331171         -90.046055        0.953905531        -46.6122961
                    0.00449115835        -129.859923       0.0222423093         58.6189765        0.953905531        -46.6122961       0.0416736856        -102.795507

          80000000      0.0705828224        -98.1958985        0.950961872        -53.1831294       0.0239029393         18.0337289      0.00531907508        -134.791329
                      0.950961872        -53.1831294       0.0442518246        -116.473564      0.00532051195         -134.82415       0.0244485779         55.2194054
                     0.0239029389         18.0337301      0.00532051259         -134.82413       0.0705527712        -98.2855858        0.950940353        -53.2048455
                    0.00531907556         -134.79132       0.0244485771         55.2194065        0.950940353        -53.2048455       0.0443523661        -116.420763

          90000000      0.0771933536        -106.091277        0.947869556        -59.7590213       0.0255221001         8.81340021       0.0062185112        -140.341842
                      0.947869556        -59.7590213       0.0473180709        -129.909882      0.00622012872        -140.380351       0.0263738204         52.0691371
                        0.0255221         8.81340223      0.00622012932        -140.380355       0.0771530298        -106.193308        0.947847632        -59.7834351
                     0.0062185117        -140.341846       0.0263738194         52.0691398        0.947847632        -59.7834351       0.0474243481         -129.83288

         100000000      0.0837068139        -113.590745        0.944643606        -66.3154449       0.0267634747       -0.677207432      0.00717958097        -146.443351
                      0.944643606        -66.3154449       0.0508250423        -142.842219      0.00718132824        -146.487357       0.0280172612         49.2257581
                     0.0267634749       -0.677208978      0.00718132839        -146.487352       0.0836556133        -113.704656        0.944621231          -66.34255
                    0.00717958112        -146.443345       0.0280172613         49.2257582        0.944621231          -66.34255       0.0509331194        -142.742633

         110000000      0.0900286115        -120.846411        0.941321061        -72.8476816       0.0276354391        -10.5012312      0.00819051672        -153.009329
                      0.941321061        -72.8476816       0.0547122342        -155.182447      0.00819230279        -153.058732       0.0293985338         46.7244832
                     0.0276354379        -10.5012405      0.00819230182        -153.058702       0.0899667536        -120.971078        0.941298271        -72.8774771
                    0.00819051693         -153.00929       0.0293985356         46.7244795        0.941298271        -72.8774771       0.0548176937        -155.063099

         120000000      0.0960410287        -127.948207        0.937959077        -79.3665961       0.0281650811        -20.7121775      0.00924589363        -159.988078
                      0.937959077        -79.3665961       0.0589681055        -167.133271      0.00924764443         -160.04255       0.0305588779         44.5901449
                     0.0281650761        -20.7121956      0.00924764296        -160.042491        0.095967957        -128.083641        0.937935899         -79.399075
                    0.00924589567        -159.987987       0.0305588816         44.5901363        0.937935899         -79.399075       0.0590671705        -166.997621

         130000000        0.10159762         -134.93252        0.934575316        -85.8699776       0.0283881343        -31.4031116       0.0103326776        -167.304098
                      0.934575316        -85.8699776       0.0635661994        -178.594008       0.0103343071        -167.363325       0.0315422522         42.8650434
                     0.0283881235         -31.403137       0.0103343064        -167.363239        0.101513019        -135.078669        0.934551805        -85.9051331
                     0.0103326849        -167.303945       0.0315422578         42.8650295        0.934551805        -85.9051331         0.06365552        -178.446024

         140000000       0.106694029        -141.774578        0.931195962        -92.3502887       0.0283528022        -42.6685139        0.011431996        -174.889234
                      0.931195962        -92.3502887       0.0682950393         170.515629       0.0114334123        -174.952908       0.0323942028         41.5718072
                     0.0283527844        -42.6685438       0.0114334139        -174.952799        0.106597712        -141.931282        0.931172199        -92.3881162
                     0.0114320132        -174.889018       0.0323942098         41.5717883        0.931172199        -92.3881162       0.0683718607         170.672374

         150000000       0.111282827        -148.566073        0.927845806          -98.81628       0.0281449371        -54.5909574       0.0125347466         177.308379
                      0.927845807        -98.8162799       0.0731982038         160.080004       0.0125358555         177.240536       0.0331895756         40.6848075
                     0.0281449119        -54.5909886       0.0125358607         177.240662        0.111174905        -148.733172        0.927821875        -98.8567777
                     0.0125347787         177.308651        0.033189584         40.6847842        0.927821875        -98.8567777       0.0732601058           160.2422

         160000000       0.115230057        -155.306868        0.924548851        -105.269266       0.0278642551        -67.2692467       0.0136260046         169.328508
                      0.924548851        -105.269266       0.0781958448         150.064157       0.0136267165         169.256766       0.0339988763         40.1909214
                      0.027864223        -67.2692764       0.0136267262         169.256903        0.115110743        -155.484239        0.924524862        -105.312432
                     0.0136260562         169.328824       0.0339988862         40.1908941        0.924524861        -105.312432       0.0782408496         150.229037

         170000000       0.118459217        -161.994613        0.921356131        -111.701156       0.0276256441        -80.7550887       0.0146851211          161.22705
                      0.921356131        -111.701156       0.0830115898         140.490035       0.0146853474         161.151659       0.0348805762          40.057033
                     0.0276256061        -80.7551153       0.0146853621           161.1518        0.118328931        -162.182123        0.921332167        -111.746994
                      0.014685196         161.227396       0.0348805878         40.0570015        0.921332166        -111.746994       0.0830383927         140.655559

         180000000       0.121030986        -168.660459        0.918254801        -118.122395       0.0275687277        -94.9973978       0.0157056738         153.031263
                      0.918254801        -118.122395       0.0877548589          131.25979       0.0157053379         152.952459       0.0359111407         40.1819427
                     0.0275686851        -94.9974201       0.0157053578         152.952599        0.120890251        -168.857953        0.918230958        -118.170907
                      0.015705774         153.031623        0.035911154         40.1819065        0.918230956        -118.170907       0.0877623605         131.424093

         190000000       0.122816019        -175.337038        0.915271909        -124.532697       0.0278372687        -109.861833       0.0166740331         144.781364
                      0.915271909        -124.532697       0.0922792632         122.384885       0.0166730674         144.699378       0.0371534999         40.4818724
                     0.0278372228        -109.861851       0.0166730923         144.699514        0.122665567        -175.544433        0.915248253        -124.583887
                     0.0166741592         144.781724       0.0371535144         40.4818309        0.915248252        -124.583888       0.0922669153         122.546558

         200000000       0.123745405          178.00678        0.912456562        -130.928324       0.0285564164        -125.098171       0.0175706345         136.509607
                      0.912456563        -130.928324       0.0963550834          113.80618       0.0175689813         136.424676       0.0386457998         40.8653827
                     0.0285563686        -125.098185       0.0175690106         136.424804        0.123586025         177.789578        0.912433139          -130.9822
                     0.0175707851         136.509955       0.0386458147         40.8653354        0.912433137          -130.9822       0.0963225266          113.96427

         210000000       0.123903728         171.333634        0.909780346        -137.315676       0.0298057118         -140.32753       0.0183942151         128.242147
                      0.909780346        -137.315676        0.100076015         105.511761       0.0183918258         128.154506       0.0404252934         41.1954885
                     0.0298056632         -140.32754       0.0183918586         128.154624        0.123736469         171.106745         0.90975714        -137.372247
                     0.0183943872          128.24247       0.0404253072         41.1954357        0.909757138        -137.372247        0.100023282         105.665283

         220000000       0.123225236         164.619221        0.907251437        -143.696988       0.0316258887        -155.204132       0.0191348504         120.008338
                      0.907251437        -143.696987        0.103336417         97.4968217       0.0191317002         119.918222       0.0425133017         41.3768759
                     0.0316258405        -155.204138       0.0191317358         119.918328        0.123051212          164.38272         0.90722843        -143.756259
                     0.0191350397         120.008628       0.0425133128          41.376819        0.907228427         -143.75626        0.103263806         97.6450372

         230000000       0.121599668         157.875027        0.904925819         -150.06818        0.034005612        -169.467681       0.0197756407         111.846955
                      0.904925819         -150.06818        0.105871001         89.7122437       0.0197717232         111.754623       0.0449024713         41.3505679
                     0.0340055654        -169.467683       0.0197717603         111.754716        0.121420057         157.628943         0.90490295        -150.130163
                     0.0197758415         111.847206       0.0449024781         41.3505092        0.904902947        -150.130163        0.105778932         89.8546963

         240000000       0.119239351         151.093055        0.902735263        -156.437082       0.0368605814         177.042609        0.020324128         103.766636
                      0.902735264        -156.437082        0.107888784         82.1454266       0.0203194615         103.672334       0.0475709088          41.026382
                     0.0368605374         177.042611       0.0203194991         103.672413        0.119055386         150.837564        0.902712463        -156.501783
                     0.0203243336         103.766844       0.0475709103         41.0263244         0.90271246        -156.501783        0.107777852         82.2814555

         250000000       0.115948043         144.185513        0.900720598        -162.803268       0.0401300219         164.364534       0.0207727953         95.8199147
                      0.900720599        -162.803268        0.109131944         74.8527044       0.0207674246         95.7239294       0.0505101688         40.3816398
                     0.0401299815         164.364539       0.0207674614         95.7239953        0.115761271         143.920547        0.900697716        -162.870695
                      0.020772999         95.8200784       0.0505101647          40.381586        0.900697713        -162.870695         0.10900307         74.9819313

         260000000       0.111842977         137.202302        0.898867501        -169.167414       0.0437031975          152.43754       0.0211186064         88.0229915
                      0.898867502        -169.167414        0.109611913         67.7508088       0.0211126055          87.925607       0.0536620418         39.4084052
                     0.0437031615         152.437547       0.0211126402         87.9256593        0.111654791         136.927958        0.898844397        -169.237573
                     0.0211188008         88.0231114       0.0536620325         39.4083576        0.898844394        -169.237573        0.109465894         67.8727204

         270000000       0.107031444         130.144053         0.89714317        -175.531346        0.047467854         141.170028       0.0213695539         80.3978162
                      0.897143171        -175.531346        0.109387837         60.8329965       0.0213630266         80.2993091       0.0569701657         38.1058382
                     0.0474678233         141.170037       0.0213630582         80.2993485        0.106843239         129.860516        0.897119676        -175.604243
                      0.021369732         80.3978951       0.0569701526         38.1057984        0.897119673        -175.604243        0.109225577         60.9469893

         280000000       0.101296618         122.788157        0.895582005         178.102049       0.0513695246         130.488471       0.0215290295         73.0202139
                      0.895582006         178.102049        0.108166783         54.2392616       0.0215221269         72.9208928       0.0604251333         36.4841166
                     0.0513694996          130.48848       0.0215221542         72.9209204        0.101110274         122.495127        0.895557886         178.026413
                     0.0215291848         73.0202566       0.0604251182         36.4840855        0.895557884         178.026413        0.107989407         54.3450251

