! Created Wed Feb 27 11:31:04 2019
# hz S ma R 50
! 4 Port Network Data from SP1.SP block
! freq  magS11  angS11  magS12  angS12  magS13  angS13  magS14  angS14  
!       magS21  angS21  magS22  angS22  magS23  angS23  magS24  angS24  
!       magS31  angS31  magS32  angS32  magS33  angS33  magS34  angS34  
!       magS41  angS41  magS42  angS42  magS43  angS43  magS44  angS44  
!     
                 0      0.0243473896        -23.9955893    5.85539475e-006        -175.613393      0.00141380167          72.874369    1.81375872e-005          106.44093
                   5.8553246e-006        -175.613339       0.0325886293        -17.1488065      8.178662e-006        -140.316547      0.00153083939         70.5963976
                    0.00141382297         72.8666199    8.17864333e-006        -140.316405       0.0243721234        -24.0173143    9.88936564e-006         128.632044
                  1.81375006e-005         106.440207      0.00153073621         70.6076537    9.88935218e-006         128.631969       0.0325854682        -17.1468931

          10000000      0.0243864246        -19.9848521    9.37705159e-005        -105.472957      0.00359240344         75.6371455    9.93124994e-005        -107.451071
                  9.37705159e-005        -105.472957       0.0327751725        -15.5707049    7.99858889e-005        -105.582083       0.0037088397         77.9134551
                    0.00359240344         75.6371454    7.99858889e-005        -105.582083       0.0244119896        -20.0194369    8.62448598e-005        -106.950694
                  9.93124993e-005        -107.451072      0.00370883972          77.913455    8.62448599e-005        -106.950694       0.0327964625         -15.576349

          20000000      0.0272441214        -37.8704267     0.000179103931        -109.394317      0.00697679544         68.8151064     0.000187792782        -110.430606
                   0.000179103933        -109.394317       0.0337830821        -30.7128836     0.000153231033        -109.366578      0.00726376719         76.0004358
                    0.00697681688         68.8152122     0.000153231029        -109.366576       0.0272818001        -37.9283649     0.000163662398        -110.141688
                   0.000187792776        -110.430605      0.00726377572         76.0005818     0.000163662398        -110.141688       0.0338113829        -30.7288254

          30000000      0.0314305007        -52.6847504     0.000263318696        -114.753439       0.0102303567         60.7953755     0.000275122397        -115.189035
                   0.000263318698         -114.75344       0.0347698185         -45.539572     0.000225589601        -114.721901       0.0107077372         72.7766648
                     0.0102303687         60.7953988       0.0002255896          -114.7219       0.0314839935        -52.7514193     0.000240289285        -115.117452
                   0.000275122396        -115.189035       0.0107077398          72.776654     0.000240289283        -115.117452       0.0348071563        -45.5594641

          40000000       0.036529398        -64.8313673     0.000347231851        -120.557076       0.0133136497         52.3967433     0.000362689822        -120.513377
                   0.000347231853        -120.557076       0.0359740177        -60.1477687     0.000297739396        -120.550283       0.0139713156         69.3926213
                     0.0133136515          52.396786     0.000297739394        -120.550282       0.0365994906        -64.8981603     0.000317009597        -120.657799
                   0.000362689821        -120.513377       0.0139713069         69.3926381     0.000317009597        -120.657798       0.0360249052        -60.1647252

          50000000      0.0422575986        -74.9859667     0.000431330083        -126.575703       0.0161870333          43.788108     0.000451341881        -126.135456
                   0.000431330085        -126.575704       0.0375165631        -74.5076244     0.000370075798        -126.606582       0.0169922122         65.7648415
                     0.0161870344         43.7881087     0.000370075797        -126.606582       0.0423436981        -75.0490708     0.000394387109         -126.48234
                    0.00045134188        -126.135455       0.0169922062         65.7648637     0.000394387108        -126.482339       0.0375819313        -74.5151077

          60000000      0.0483321085        -83.9034568     0.000516099682        -132.736915       0.0188172693         35.0179563     0.000541874145        -131.976764
                   0.000516099682        -132.736915       0.0393288962        -88.8256753     0.000442982184        -132.812894       0.0197475199         62.2365634
                     0.0188172696         35.0179592     0.000442982184        -132.812894        0.048432687        -83.9613602     0.000472971419        -132.504047
                   0.000541874145        -131.976764       0.0197475164         62.2365728     0.000472971418        -132.504047       0.0394082109        -88.8169821

          70000000      0.0546623949        -91.8530991     0.000601739722        -139.006471       0.0211714776         26.0896622     0.000634608338        -138.001606
                    0.00060173972        -139.006471       0.0415824934         -102.82497     0.000516603251        -139.132303       0.0222423115         58.6189764
                     0.0211714783         26.0896628     0.000516603252        -139.132303       0.0547752301        -91.9055401     0.000552980084        -138.682794
                    0.00063460834        -138.001606       0.0222423093         58.6189765     0.000552980084        -138.682794       0.0416736856        -102.795507

          80000000      0.0611189225        -99.1374773     0.000688457236         -145.37258        0.023225194         16.9896345     0.000729813079        -144.197695
                   0.000688457234         -145.37258       0.0442518246        -116.473564     0.000591084483        -145.551077       0.0244485779         55.2194054
                     0.0232251938         16.9896355     0.000591084484        -145.551077       0.0612414419        -99.1843781     0.000634606723        -145.003717
                   0.000729813081        -144.197695       0.0244485771         55.2194065     0.000634606724        -145.003717       0.0443523661        -116.420763

          90000000      0.0675418024        -106.125701     0.000776561407        -151.847389       0.0249744056         7.70172024     0.000827885409        -150.579765
                   0.000776561405        -151.847389       0.0473180709        -129.909882     0.000666646754        -152.078704       0.0263738204         52.0691371
                      0.024974406         7.70171908     0.000666646754        -152.078703       0.0676710317        -106.166915     0.000718143248        -151.477863
                    0.00082788541        -150.579765       0.0263738194         52.0691398     0.000718143249        -151.477863       0.0474243481         -129.83288

         100000000      0.0738900403        -112.763529     0.000865885577        -158.417176       0.0264039716         -1.8167654     0.000928455812         -157.12706
                   0.000865885575        -158.417176       0.0508250423        -142.842219     0.000743125373        -158.700503       0.0280172612         49.2257581
                     0.0264039719        -1.81676521     0.000743125372        -158.700502       0.0740227352        -112.799258     0.000803332244        -158.087099
                   0.000928455812         -157.12706       0.0280172613         49.2257582     0.000803332246        -158.087099       0.0509331194        -142.742633

         110000000       0.080070153        -119.175639     0.000956310317        -165.078673       0.0275217499        -11.6141103      0.00103122517        -163.831475
                   0.000956310306        -165.078673       0.0547122342        -155.182447     0.000820392401        -165.411567       0.0293985338         46.7244832
                     0.0275217503        -11.6141052     0.000820392207        -165.411572       0.0802030547         -119.20646     0.000889970866        -164.824165
                    0.00103122517        -163.831475       0.0293985356         46.7244795     0.000889970871        -164.824165       0.0548176937        -155.063099

         120000000       0.085989284        -125.488175      0.00104778962        -171.846113       0.0283469243        -21.7206702      0.00113600839        -170.703269
                    0.00104778959         -171.84611       0.0589681055        -167.133271     0.000898369604        -172.223925       0.0305588779         44.5901449
                     0.0283469261         -21.720661      0.00089836975        -172.223919       0.0861185831        -125.513907     0.000977923682        -171.700266
                     0.0011360084        -170.703269       0.0305588816         44.5901363     0.000977923691        -171.700267       0.0590671705        -166.997621

         130000000      0.0915047191        -131.705154      0.00114000669        -178.712341       0.0289058091        -32.2045686      0.00124220155        -177.727027
                    0.00114000667        -178.712336       0.0635661994        -178.594008     0.000976766417        -179.129375       0.0315422522         42.8650434
                      0.028905813        -32.2045568     0.000976766534        -179.129376       0.0916265247        -131.725754      0.00106674494        -178.703419
                    0.00124220157        -177.727028       0.0315422578         42.8650295      0.00106674494        -178.703422         0.06365552        -178.446024

         140000000      0.0966245078        -137.817121      0.00123230149         174.342901       0.0292309394        -43.1250439        0.001348685         175.127813
                    0.00123230153         174.342909       0.0682950393         170.515629      0.00105503687         173.893053       0.0323942028         41.5718072
                     0.0292309456         -43.125031      0.00105503696         173.893051       0.0967349033        -137.832708      0.00115564988         174.192969
                    0.00134868502         175.127811       0.0323942098         41.5717883      0.00115564985         174.192965       0.0683718607         170.672374

         150000000       0.101311661         -143.89632      0.00132439739         167.315067       0.0293871559        -54.5284888      0.00145500897         167.862809
                    0.00132439753         167.315077       0.0731982038         160.080004      0.00113292947         166.839948       0.0331895756         40.6848075
                     0.0293871643        -54.5284761      0.00113292955         166.839944        0.101406537        -143.907002      0.00124428785         166.988558
                    0.00145500898         167.862806        0.033189584         40.6847842      0.00124428775         166.988552       0.0732601058           160.2422

         160000000       0.105428094        -149.953948      0.00141575433         160.214487       0.0294447158        -66.4767773      0.00156028562         160.496042
                    0.00141575457         160.214496       0.0781958448         150.064157      0.00120998635         159.722016       0.0339988763         40.1909214
                      0.029444726        -66.4767657       0.0012099864         159.722012        0.105503311        -149.959808      0.00133199973         159.698056
                    0.00156028563         160.496037       0.0339988862         40.1908941      0.00133199953         159.698051       0.0782408496         150.229037

         170000000       0.108914738        -155.967206      0.00150561838         153.066576       0.0294817318        -79.0056815      0.00166327094         153.060783
                    0.00150561872         153.066584       0.0830115898         140.490035      0.00128560401         152.564988       0.0348805762          40.057033
                     0.0294817434        -79.0056716      0.00128560405         152.564984        0.108966309        -155.968366      0.00141790778         152.351747
                    0.00166327093         153.060777       0.0348805878         40.0570015      0.00141790746         152.351745       0.0830383927         140.655559

         180000000       0.111817969        -161.981552      0.00159363589         145.871152       0.0295953869        -92.0829959      0.00176348214         145.562066
                    0.00159363631         145.871158       0.0877548589          131.25979      0.00135949077         145.369141       0.0359111407         40.1819427
                     0.0295953993        -92.0829877       0.0013594908         145.369136        0.111841876        -161.978215      0.00150163092         144.952956
                    0.00176348211         145.562059        0.035911154         40.1819065      0.00150163052         144.952958       0.0877623605         131.424093

         190000000        0.11402007        -168.014548      0.00167926675         138.645203       0.0298884295        -105.653499      0.00186005185         138.023552
                    0.00167926722         138.645207       0.0922792632         122.384885      0.00143121801         138.151269       0.0371534999         40.4818724
                     0.0298884424        -105.653493      0.00143121802         138.151264        0.114012426        -168.006871      0.00158254057         137.522166
                     0.0018600518         138.023544       0.0371535144         40.4818309      0.00158254015         137.522173       0.0922669153         122.546558

         200000000       0.115438841        -174.036062      0.00176182772           131.4115       0.0304552785        -119.599978      0.00195183614         130.473832
                    0.00176182824         131.411501       0.0963550834          113.80618       0.0015002676         130.934286       0.0386457998         40.8653827
                     0.0304552914        -119.599973      0.00150026759         130.934281        0.115396188        -174.024199      0.00165985113         130.085993
                    0.00195183606         130.473823       0.0386458147         40.8653354      0.00165985073         130.086004       0.0963225266          113.96427

         210000000       0.116175355         179.918923       0.0018411333         124.174607       0.0313687931        -133.708954      0.00203863742         122.921453
                    0.00184113383         124.174606        0.100076015         105.511761      0.00156651357         123.722752       0.0404252934         41.1954885
                     0.0313688057        -133.708951      0.00156651354         123.722747        0.116094404         179.934605      0.00173340441          122.65148
                     0.0020386373         122.921443       0.0404253072         41.1954357      0.00173340408         122.651495        0.100023282         105.665283

         220000000       0.116134037         173.826114      0.00191682304         116.950402       0.0326872515        -147.768048      0.00211986036         115.388764
                    0.00191682356           116.9504        0.103336417         97.4968217      0.00162970376         116.531841       0.0425133017         41.3768759
                     0.0326872635        -147.768045      0.00162970371         116.531837        0.116011742         173.845223      0.00180279267         115.237499
                     0.0021198602         115.388755       0.0425133128          41.376819      0.00180279243         115.237514        0.103263806         97.6450372

         230000000        0.11522048         167.711658      0.00198845637         109.762511       0.0344371136        -161.581732      0.00219467025         107.905275
                    0.00198845688         109.762508        0.105871001         89.7122437      0.00168955362         109.384936       0.0449024713         41.3505679
                     0.0344371248         -161.58173      0.00168955356         109.384933        0.115054363         167.733832       0.0018674984         107.871351
                    0.00219467006         107.905266       0.0449024781         41.3505092      0.00186749826         107.871366        0.105778932         89.8546963

         240000000       0.113626344         161.556607       0.0020560929           102.6083       0.0365832218        -174.968272      0.00226332056         100.470397
                    0.00205609337         102.608296        0.107888784         82.1454266      0.00174616208         102.279201       0.0475709088          41.026382
                     0.0365832321        -174.968271        0.001746162         102.279198        0.113414286         161.581066      0.00192769471         100.551833
                    0.00226332034         100.470387       0.0475709103         41.0263244      0.00192769465         100.551847        0.107777852         82.2814555

         250000000       0.111145711         155.288461      0.00211973913         95.5129603       0.0391113804         172.172883      0.00232565253         93.1204988
                    0.00211973956         95.5129557        0.109131944         74.8527044      0.00179960166          95.237477       0.0505101688         40.3816398
                     0.0391113896         172.172883      0.00179960158         95.2374748         0.11088567         155.314443      0.00198333041         93.3079106
                    0.00232565229         93.1204901       0.0505101647          40.381586      0.00198333041         93.3079232         0.10900307         74.9819313

         260000000       0.107886424         148.960483      0.00217929731          88.482927       0.0419482257         159.868032      0.00238152237         85.8640788
                    0.00217929768         88.4829223        0.109611913         67.7508088      0.00184988718         88.2662947       0.0536620418         39.4084052
                     0.0419482337         159.868032      0.00184988709          88.266293        0.107577307         148.986952      0.00203437453          86.148562
                    0.00238152211         85.8640711       0.0536620325         39.4083576      0.00203437458         86.1485727        0.109465894         67.8727204

         270000000       0.103968508         142.571549      0.00223496404         81.5224685       0.0450111142         148.101443      0.00243132284          78.708638
                    0.00223496436         81.5224639        0.109387837         60.8329965       0.0018972596         81.3687823       0.0569701657         38.1058382
                     0.0450111209         148.101443      0.00189725952         81.3687812        0.103609935         142.597021      0.00208114793         79.0795698
                    0.00243132259         78.7086315       0.0569701526         38.1057984      0.00208114799         79.0795787        0.109225577         60.9469893

         280000000      0.0990943264          135.93192      0.00228741247         74.6594429       0.0482685796         136.857249      0.00247588736          71.700576
                    0.00228741273         74.6594388        0.108166783         54.2392616       0.0019423173         74.5679269       0.0604251333         36.4841166
                     0.0482685851         136.857249      0.00194231723         74.5679262        0.098685508         135.954481      0.00212428104         72.1338376
                    0.00247588713         71.7005708       0.0604251182         36.4840855      0.00212428112         72.1338446        0.107989407         54.3450251

