! Created Wed Feb 27 11:48:29 2019
# hz S ma R 50
! 4 Port Network Data from SP1.SP block
! freq  magS11  angS11  magS12  angS12  magS13  angS13  magS14  angS14  
!       magS21  angS21  magS22  angS22  magS23  angS23  magS24  angS24  
!       magS31  angS31  magS32  angS32  magS33  angS33  magS34  angS34  
!       magS41  angS41  magS42  angS42  magS43  angS43  magS44  angS44  
!     
                 0      0.0247298249        -23.4242909    1.09898214e-005        -115.442474      0.00155038829         71.4953195    8.58830365e-006        -118.408567
                  1.09898118e-005          -115.4424       0.0325886293        -17.1488065    8.52483999e-006        -116.878614      0.00153083939         70.5963976
                    0.00155049242         71.4665585    8.52482866e-006        -116.878607       0.0247365936        -23.4543458     1.1027244e-005        -115.629789
                  8.58828745e-006        -118.408448      0.00153073621         70.6076537    1.10272557e-005         -115.62987       0.0325854682        -17.1468931

          10000000      0.0249110101        -21.3316485    2.83477615e-005        -107.566918      0.00274893869         75.2870473    2.74843621e-005        -107.354497
                  2.83477615e-005        -107.566918       0.0327751725        -15.5707049    2.43130795e-005        -107.524711       0.0037088397         77.9134551
                    0.00274893868         75.2870472    2.43130795e-005        -107.524711       0.0249237135        -21.3301546    2.82541833e-005        -107.683339
                  2.74843621e-005        -107.354497      0.00370883972          77.913455    2.82541833e-005        -107.683339       0.0327964625         -15.576349

          20000000      0.0278460729        -40.3052049    5.41673733e-005         -110.34906       0.0053215893         70.5781735    5.25273954e-005        -110.278628
                  5.41673738e-005         -110.34906       0.0337830821        -30.7128836    4.64533279e-005        -110.427779      0.00726376719         76.0004358
                    0.00532159256         70.5781353    4.64533276e-005        -110.427778       0.0278662943        -40.2880696     5.3959439e-005        -110.426389
                  5.25273949e-005        -110.278628      0.00726377572         76.0005818    5.39594384e-005        -110.426389       0.0338113829        -30.7288254

          30000000      0.0321166363        -55.9658312    7.96261916e-005        -115.284525      0.00777609285          64.174373     7.7211175e-005        -115.285214
                  7.96261911e-005        -115.284526       0.0347698185         -45.539572    6.82580222e-005        -115.436789       0.0107077372         72.7766648
                     0.0077760908         64.1743775    6.82580213e-005        -115.436789       0.0321468606        -55.9373473    7.93049476e-005        -115.343912
                   7.7211174e-005        -115.285214       0.0107077398          72.776654    7.93049482e-005        -115.343911       0.0348071563        -45.5594641

          40000000      0.0372472783        -68.8048262     0.000104993927        -120.848414       0.0100749939         57.2826968     0.000101787437        -120.895842
                   0.000104993926        -120.848414       0.0359740177        -60.1477687    8.99602942e-005           -121.055       0.0139713156         69.3926213
                     0.0100749977         57.2826716    8.99602922e-005           -121.055       0.0372883794        -68.7636665     0.000104562596        -120.896918
                   0.000101787435        -120.895842       0.0139713069         69.3926381     0.000104562597        -120.896918       0.0360249052        -60.1647252

          50000000      0.0429186262        -79.5511282     0.000130400513        -126.707066       0.0121794667         50.1560608     0.000126384274        -126.786597
                   0.000130400512        -126.707066       0.0375165631        -74.5076244     0.000111674402         -126.95593       0.0169922122         65.7648415
                     0.0121794643         50.1560454       0.0001116744        -126.955929       0.0429712276        -79.4973499     0.000129863571        -126.748788
                   0.000126384272        -126.786596       0.0169922062         65.7648637     0.000129863572        -126.748788       0.0375819313        -74.5151077

          60000000      0.0488369994        -88.9915286     0.000155966185        -132.746158       0.0140562903         42.8780289     0.000151122861        -132.848147
                   0.000155966185        -132.746157       0.0393288962        -88.8256753     0.000133507369        -133.028574       0.0197475199         62.2365634
                      0.014056279         42.8779851     0.000133507368        -133.028573        0.048901885        -88.9252872     0.000155328271        -132.783826
                    0.00015112286        -132.848146       0.0197475164         62.2365728     0.000155328272        -132.783827       0.0394082109        -88.8169821

          70000000      0.0548948443        -97.4046867     0.000181739371        -138.911122       0.0156715627         35.4686842     0.000176054477        -139.028794
                   0.000181739371        -138.911122       0.0415824934         -102.82497     0.000155504691        -139.220184       0.0222423115         58.6189764
                     0.0156715622         35.4686772     0.000155504691        -139.220184       0.0549727109         -97.327007      0.00018100592        -138.946854
                   0.000176054477        -139.028793       0.0222423093         58.6189765     0.000181005921        -138.946854       0.0416736856        -102.795507

          80000000      0.0609589311        -105.099589     0.000207773582        -145.179173       0.0169975835         27.9257549     0.000201236059        -145.307537
                   0.000207773582        -145.179173       0.0442518246        -116.473564      0.00017771834        -145.509379       0.0244485779         55.2194054
                     0.0169975826         27.9257521      0.00017771834        -145.509379       0.0610503052        -105.011686     0.000206949874        -145.214739
                    0.00020123606        -145.307537       0.0244485771         55.2194065     0.000206949874        -145.214739       0.0443523661        -116.420763

          90000000      0.0668868622        -112.454425     0.000234148516         -151.55383       0.0180255401         20.2417634     0.000226750775        -151.689402
                   0.000234148516         -151.55383       0.0473180709        -129.909882     0.000200223136        -151.901175       0.0263738204         52.0691371
                     0.0180255398         20.2417624     0.000200223136        -151.901175       0.0669914846        -112.357109     0.000233239777          -151.5908
                   0.000226750775        -151.689402       0.0263738194         52.0691398     0.000233239777          -151.5908       0.0474243481         -129.83288

         100000000       0.072626872        -119.412992     0.000260822709        -158.019315       0.0187314979         12.3735785      0.00025256399        -158.159643
                   0.000260822708        -158.019315       0.0508250423        -142.842219     0.000222990619         -158.38091       0.0280172612         49.2257581
                     0.0187314983         12.3735793     0.000222990619         -158.38091       0.0727446192        -119.307506     0.000259833895        -158.059164
                    0.00025256399        -158.159643       0.0280172613         49.2257582     0.000259833896        -158.059164       0.0509331194        -142.742633

         110000000      0.0780971071        -126.102343     0.000287766331        -164.570621       0.0191107105         4.25827352     0.000278652265        -164.714122
                   0.000287766329        -164.570621       0.0547122342        -155.182447     0.000246001975        -164.944734       0.0293985338         46.7244832
                     0.0191107105          4.2582778     0.000246001972        -164.944735       0.0782274108        -125.990169     0.000286701775        -164.614734
                   0.000278652267        -164.714122       0.0293985356         46.7244795     0.000286701777        -164.614734       0.0548176937        -155.063099

         120000000      0.0832217478        -132.652532     0.000314962416        -171.217266       0.0191707171         -4.1378863     0.000305006011        -171.363997
                   0.000314962412        -171.217264       0.0589681055        -167.133271     0.000269249129        -171.603865       0.0305588779         44.5901449
                      0.019170717        -4.13788488     0.000269249123        -171.603864       0.0833633934         -132.53457     0.000313826057        -171.266872
                   0.000305006014        -171.363998       0.0305588816         44.5901363     0.000313826062        -171.266872       0.0590671705        -166.997621

         130000000      0.0878666333        -139.072624     0.000342317962        -177.952769       0.0189184144         -12.926506     0.000331541275        -178.103431
                   0.000342317966        -177.952766       0.0635661994        -178.594008     0.000292658347        -178.352803       0.0315422522         42.8650434
                     0.0189184156        -12.9264953     0.000292658341        -178.352802       0.0880180871        -138.949686     0.000341112747        -178.008994
                   0.000331541279        -178.103433       0.0315422578         42.8650295     0.000341112754        -178.008995         0.06365552        -178.446024

         140000000      0.0920494572         -145.34727     0.000369687312         175.242313       0.0183633127        -22.2362406     0.000358115001         175.086054
                   0.000369687331         175.242317       0.0682950393         170.515629     0.000316106684         174.826918       0.0323942028         41.5718072
                     0.0183633178        -22.2362218     0.000316106679         174.826921       0.0922090048        -145.220459     0.000368415236         175.178417
                   0.000358115005          175.08605       0.0323942098         41.5717883     0.000368415243         175.178415       0.0683718607         170.672374

         150000000      0.0957533295        -151.548924       0.0003969866         168.363795       0.0175528932        -32.2331967     0.000384649978         168.199484
                   0.000396986636         168.363797       0.0731982038         160.080004     0.000339524501          167.93013       0.0331895756         40.6848075
                     0.0175529025        -32.2331755     0.000339524498         167.930133       0.0959187029        -151.419221     0.000395649125         168.291287
                   0.000384649978         168.199479        0.033189584         40.6847842     0.000395649127         168.291283       0.0732601058           160.2422

         160000000      0.0988562873         -157.69367     0.000424065085         161.419944       0.0165356749        -43.1910344     0.000411001636         161.244874
                   0.000424065134         161.419945       0.0781958448         150.064157     0.000362783561         160.964639       0.0339988763         40.1909214
                     0.0165356879        -43.1910143     0.000362783563         160.964642        0.099025489        -157.561909     0.000422662434         161.338008
                   0.000411001628         161.244868       0.0339988862         40.1908941     0.000422662427         161.338003       0.0782408496         150.229037

         170000000       0.101311672        -163.757339      0.00045074542         154.434305       0.0153765254        -55.4700755     0.000436992556         154.245286
                   0.000450745475         154.434304       0.0830115898         140.490035     0.000385729369         153.953606       0.0348805762          40.057033
                     0.0153765414         -55.470058     0.000385729375          153.95361        0.101482665        -163.624883     0.000449276096           154.3422
                   0.000436992539         154.245278       0.0348805878         40.0570015     0.000449276078         154.342195       0.0830383927         140.655559

         180000000       0.103185854        -169.780254     0.000476920879          147.40648       0.0141971837        -69.4719212     0.000462518272         147.199791
                   0.000476920936         147.406477       0.0877548589          131.25979     0.000408267283         146.896083       0.0359111407         40.1819427
                      0.014197202        -69.4719062     0.000408267293         146.896087        0.103355622        -169.648703     0.000475382736         147.303552
                   0.000462518243         147.199782        0.035911154         40.1819065     0.000475382708         147.303547       0.0877623605         131.424093

         190000000       0.104379852        -175.783969     0.000502439877         140.350604       0.0131578807        -85.6700987     0.000487428674         140.122717
                    0.00050243993           140.3506       0.0922792632         122.384885     0.000430263926         139.806265       0.0371534999         40.4818724
                     0.0131579004         -85.670084     0.000430263941         139.806269        0.104545031        -175.654661     0.000500828986         140.236344
                   0.000487428634         140.122707       0.0371535144         40.4818309     0.000500828949         140.236339       0.0922669153         122.546558

         200000000       0.104821713         178.263104     0.000527137895         133.288255       0.0124655221        -104.286634      0.00051155488         133.035395
                   0.000527137943          133.28825       0.0963550834          113.80618     0.000451571875         132.705728       0.0386457998         40.8653827
                     0.0124655425        -104.286616     0.000451571893          132.70573        0.104979166         178.388852     0.000525448214         133.162288
                   0.000511554829         133.035385       0.0386458147         40.8653354      0.00052544817         133.162284       0.0963225266          113.96427

         210000000       0.104630428         172.334564     0.000550950159         126.224049       0.0123555182        -124.680744     0.000534828367         125.942143
                     0.0005509502         126.224044        0.100076015         105.511761     0.000472128308         125.598828       0.0404252934         41.1954885
                     0.0123555384        -124.680719      0.00047212833         125.598831        0.104776826         172.454977     0.000549174776          126.08608
                   0.000534828304         125.942133       0.0404253072         41.1954357     0.000549174728         126.086076        0.100023282         105.665283

         220000000       0.103727311         166.404055      0.00057376796         119.171091       0.0129955806        -145.360071     0.000557137466         118.856565
                   0.000573767994         119.171086        0.103336417         97.4968217     0.000491833678         118.499016       0.0425133017         41.3768759
                     0.0129956001        -145.360042     0.000491833702         118.499018        0.103859155         166.517376     0.000571898253         119.021008
                   0.000557137393         118.856556       0.0425133128          41.376819     0.000571898202         119.021005        0.103263806         97.6450372

         230000000       0.102024688         160.501582     0.000595494423         112.152326       0.0144039648        -164.672948     0.000578375111         111.801625
                    0.00059549445         112.152321        0.105871001         89.7122437      0.00051059606         111.429492       0.0449024713         41.3505679
                     0.0144039832        -164.672918     0.000510596084         111.429493        0.102138823         160.606001     0.000593519396         111.990218
                   0.000578375031         111.801615       0.0449024781         41.3505092     0.000593519345         111.990215        0.105778932         89.8546963

         240000000      0.0997259428         154.625046     0.000616136581         105.167349       0.0164442363         178.335121     0.000598536291         104.776536
                   0.000616136601         105.167344        0.107888784         82.1454266     0.000528408704         104.389632       0.0475709088          41.026382
                     0.0164442533         178.335146     0.000528408727         104.389633       0.0998192846           154.7179     0.000614044799         104.993376
                   0.000598536204         104.776528       0.0475709103         41.0263244      0.00061404475         104.993373        0.107777852         82.2814555

         250000000       0.096641951         148.693487     0.000635668569          98.235048       0.0189725494         163.666549     0.000617593754         97.8018264
                   0.000635668583          98.235044        0.109131944         74.8527044     0.000545245818         97.3993607       0.0505101688         40.3816398
                     0.0189725651         163.666569     0.000545245839         97.3993609       0.0967110299          148.77229     0.000633446973         98.0496961
                   0.000617593665         97.8018183       0.0505101647          40.381586     0.000633446926         98.0496944         0.10900307         74.9819313

         260000000      0.0928779858         142.785306     0.000654107825         91.3663308       0.0218204347         150.880708     0.000635542289         90.8877433
                   0.000654107834         91.3663273        0.109611913         67.7508088     0.000561105662         90.4695538       0.0536620418         39.4084052
                     0.0218204488         150.880721     0.000561105681         90.4695537       0.0929201592         142.846712     0.000651742329         91.1702413
                     0.0006355422         90.8877361       0.0536620325         39.4083576     0.000651742286           91.17024        0.109465894         67.8727204

         270000000      0.0885596957         136.922946     0.000671530472         84.5668516       0.0248509737           139.5103     0.000652437871         84.0402431
                   0.000671530477         84.5668487        0.109387837         60.8329965     0.000576037878         83.6063189       0.0569701657         38.1058382
                      0.024850986         139.510308     0.000576037894         83.6063186       0.0885726861         136.962619     0.000669006646         84.3608333
                   0.000652437786          84.040237       0.0569701526         38.1057984     0.000669006608         84.3608323        0.109225577         60.9469893

         280000000      0.0834013232         130.901871     0.000688033667          77.853622       0.0280007827         129.233051     0.000668390888         77.2793054
                    0.00068803367         77.8536196        0.108166783         54.2392616     0.000590132162         76.8284118       0.0604251333         36.4841166
                      0.028000793         129.233055     0.000590132174         76.8284113       0.0833820662         130.915266     0.000685337552         77.6389543
                    0.00066839081         77.2793006       0.0604251182         36.4840855     0.000685337521         77.6389536        0.107989407         54.3450251

