! Created Wed Feb 27 12:07:17 2019
# hz S ma R 50
! 4 Port Network Data from SP1.SP block
! freq  magS11  angS11  magS12  angS12  magS13  angS13  magS14  angS14  
!       magS21  angS21  magS22  angS22  magS23  angS23  magS24  angS24  
!       magS31  angS31  magS32  angS32  magS33  angS33  magS34  angS34  
!       magS41  angS41  magS42  angS42  magS43  angS43  magS44  angS44  
!     
                 0      0.0244460087        -23.9420043    1.70056535e-006        -119.594371      0.00141660396         71.9648086    5.64959849e-007        -132.132367
                  1.70056276e-006        -119.594358       0.0325886293        -17.1488065    5.87587683e-006        -112.469372      0.00153083939         70.5963976
                    0.00141665889         71.9474022    5.87586857e-006        -112.469151       0.0244172583        -23.9926571    1.59475583e-006        -117.421033
                   5.6495925e-007        -132.132388      0.00153073621         70.6076537    1.59474975e-006        -117.420986       0.0325854682        -17.1468931

          10000000      0.0245768414         -22.333524    3.72292564e-006        -111.257065      0.00230524102         75.7154735    2.31882898e-006        -110.269497
                  3.72292568e-006        -111.257065       0.0327751725        -15.5707049    7.60801202e-006        -111.340985       0.0037088397         77.9134551
                    0.00230524101         75.7154735    7.60801201e-006        -111.340984       0.0246137452        -22.3614627    3.13745283e-006        -111.054271
                  2.31882895e-006        -110.269497      0.00370883972          77.913455    3.13748513e-006        -111.053968       0.0327964625         -15.576349

          20000000      0.0277323782        -41.7825895    7.00744514e-006        -112.938124      0.00445512173           71.03267    4.36633996e-006        -112.453326
                  7.00744483e-006         -112.93813       0.0337830821        -30.7128836    1.44190403e-005        -112.432048      0.00726376719         76.0004358
                    0.00445511981         71.0324431    1.44190402e-005        -112.432047       0.0277940746        -41.8518213    5.93149042e-006        -112.693568
                  4.36633982e-006        -112.453327      0.00726377572         76.0005818    5.93147686e-006        -112.693614       0.0338113829        -30.7288254

          30000000      0.0322834828        -57.5201953    1.02115685e-005        -117.397462      0.00651052806         64.8455166    6.36647432e-006        -117.131398
                  1.02115689e-005        -117.397463       0.0347698185         -45.539572    2.11134805e-005        -116.553635       0.0107077372         72.7766648
                    0.00651053944         64.8454884    2.11134803e-005        -116.553635       0.0323701356        -57.6113356    8.66673319e-006        -117.126884
                  6.36647426e-006        -117.131398       0.0107077398          72.776654    8.66674504e-006        -117.126956       0.0348071563        -45.5594641

          40000000      0.0376887839         -70.223638    1.33793495e-005        -122.657263      0.00844505798         58.2158787    8.34524007e-006        -122.522007
                  1.33793489e-005        -122.657258       0.0359740177        -60.1477687    2.77962795e-005        -121.596625       0.0139713156         69.3926213
                    0.00844506333         58.2159201    2.77962793e-005        -121.596626       0.0377995764        -70.3251471    1.13875283e-005        -122.387817
                  8.34523985e-006        -122.522006       0.0139713069         69.3926381    1.13875415e-005        -122.387782       0.0360249052        -60.1647252

          50000000      0.0435990717        -80.7483139     1.6527732e-005        -128.271705        0.010230774         51.3766532    1.03156172e-005        -128.231807
                  1.65277321e-005        -128.271702       0.0375165631        -74.5076244    3.45007587e-005        -127.081443       0.0169922122         65.7648415
                     0.0102307757          51.376617    3.45007584e-005        -127.081443       0.0437316361        -80.8549394    1.41109612e-005        -128.039251
                   1.0315617e-005        -128.231807       0.0169922062         65.7648637    1.41109552e-005        -128.039279       0.0375819313        -74.5151077

          60000000      0.0497143238        -89.9396474     1.9673109e-005        -134.078355       0.0118431549         44.4094023    1.22894791e-005        -134.126586
                  1.96731083e-005        -134.078356       0.0393288962        -88.8256753    4.12542272e-005        -132.828428       0.0197475199         62.2365634
                     0.0118431535         44.4094089    4.12542273e-005        -132.828427        0.049865163        -90.0492199    1.68515835e-005          -133.9258
                  1.22894791e-005        -134.126586       0.0197475164         62.2365728    1.68515824e-005        -133.925775       0.0394082109        -88.8169821

          70000000      0.0559190677        -98.0994161    2.28254004e-005        -140.000334       0.0132554531         37.3368899    1.42727675e-005        -140.143564
                  2.28254054e-005        -140.000319       0.0415824934         -102.82497    4.80675925e-005        -138.750403       0.0222423115         58.6189764
                     0.0132554535         37.3368887    4.80675934e-005        -138.750404       0.0560835557        -98.2113873    1.96152043e-005        -139.972639
                  1.42727674e-005        -140.143564       0.0222423093         58.6189765    1.96152022e-005         -139.97265       0.0416736856        -102.795507

          80000000      0.0620784815        -105.544549    2.59972275e-005        -146.005607       0.0144453756         30.1632806     1.6272411e-005        -146.257308
                  2.59972274e-005        -146.005607       0.0442518246        -116.473564    5.49534617e-005        -144.807188       0.0244485779         55.2194054
                     0.0144453747         30.1632793    5.49534619e-005        -144.807188       0.0622513064         -105.65866    2.24090277e-005        -146.147514
                  1.62724111e-005        -146.257308       0.0244485771         55.2194065    2.24090231e-005        -146.147496       0.0443523661        -116.420763

          90000000      0.0680537478        -112.652662    2.92060624e-005        -152.096813       0.0154078683         22.8942358    1.82975297e-005        -152.472531
                  2.92060627e-005        -152.096813       0.0473180709        -129.909882    6.19318304e-005        -150.991598       0.0263738204         52.0691371
                     0.0154078641         22.8942408    6.19318302e-005        -150.991598       0.0682292198        -112.768366    2.52425125e-005        -152.449028
                  1.82975298e-005        -152.472531       0.0263738194         52.0691398    2.52425168e-005        -152.448992       0.0474243481         -129.83288

         100000000      0.0737879012        -119.369256    3.24556485e-005        -158.261057       0.0161204252         15.4970956    2.03479099e-005        -158.775308
                  3.24556485e-005        -158.261057       0.0508250423        -142.842219    6.89909551e-005        -157.282487       0.0280172612         49.2257581
                     0.0161204249         15.4970949    6.89909552e-005        -157.282487        0.073959632        -119.486341    2.81115931e-005        -158.858672
                  2.03479099e-005        -158.775308       0.0280172613         49.2257582    2.81115884e-005        -158.858675       0.0509331194        -142.742633

         110000000      0.0791993861        -125.819875    3.57512699e-005        -164.500131       0.0165774249         7.92320679     2.2424022e-005         -165.16301
                  3.57512698e-005         -164.50013       0.0547122342        -155.182447    7.61220713e-005        -163.671922       0.0293985338         46.7244832
                     0.0165774222          7.9232126    7.61220718e-005        -163.671922       0.0793608045        -125.939025    3.10128942e-005        -165.370209
                  2.24240221e-005         -165.16301       0.0293985356         46.7244795    3.10128907e-005        -165.370224       0.0548176937        -155.063099

         120000000      0.0842153633        -132.131922    3.90997337e-005        -170.830441       0.0167829686        0.173975272     2.4527552e-005        -171.652488
                  3.90997337e-005        -170.830437       0.0589681055        -167.133271    8.33186399e-005        -170.162553       0.0305588779         44.5901449
                     0.0167829657          0.1739886      8.331864e-005        -170.162553       0.0843597363        -132.252003    3.39439361e-005        -171.991329
                  2.45275521e-005         -171.65249       0.0305588816         44.5901363    3.39439305e-005        -171.991315       0.0590671705        -166.997621

         130000000      0.0887017139        -138.314923    4.24974279e-005        -177.253805       0.0167367342        -7.82892635    2.66536436e-005        -178.240947
                  4.24974288e-005        -177.253799       0.0635661994        -178.594008    9.05530316e-005        -176.746835       0.0315422522         42.8650434
                     0.0167367325        -7.82890701    9.05530311e-005        -176.746835       0.0888220133        -138.434908    3.68933618e-005        -178.714767
                  2.66536431e-005        -178.240949       0.0315422578         42.8650295     3.6893359e-005        -178.714775         0.06365552        -178.446024

         140000000      0.0926775176        -144.351789    4.59340428e-005         176.240699       0.0164357751        -16.1620512    2.87915864e-005          175.08708
                  4.59340455e-005         176.240708       0.0682950393         170.515629    9.77933602e-005         176.596676       0.0323942028         41.5718072
                     0.0164357752        -16.1620287    9.77933595e-005         176.596677       0.0927668317        -144.470868    3.98447837e-005         174.480666
                  2.87915853e-005         175.087077       0.0323942098         41.5717883    3.98447696e-005         174.480671       0.0683718607         170.672374

         150000000      0.0961285962        -150.313343    4.94030851e-005         169.641143       0.0159109476        -24.9159711    3.09356525e-005         168.323459
                  4.94030904e-005         169.641153       0.0731982038         160.080004     0.000105015481          169.86569       0.0331895756         40.6848075
                     0.0159109495        -24.9159482     0.000105015481         169.865691       0.0961803449        -150.430623    4.27872846e-005         167.591893
                  3.09356508e-005         168.323456        0.033189584         40.6847842    4.27873216e-005         167.591916       0.0732601058           160.2422

         160000000      0.0989358079        -156.215548    5.28886969e-005         162.949447       0.0151829155        -34.2629468    3.30741396e-005         161.474486
                  5.28887051e-005         162.949457       0.0781958448         150.064157      0.00011217822          163.06807       0.0339988763         40.1909214
                     0.0151829189        -34.2629256      0.00011217822          163.06807       0.0989437295        -156.330101    4.57023878e-005         160.628472
                  3.30741372e-005         161.474485       0.0339988862         40.1908941    4.57024047e-005         160.628468       0.0782408496         150.229037

         170000000       0.101055971        -162.033546    5.63705255e-005         156.183224       0.0142733851        -44.4237513     3.5191698e-005          154.56219
                  5.63705369e-005         156.183234       0.0830115898         140.490035     0.000119240523         156.227674       0.0348805762          40.057033
                     0.0142733894        -44.4237331     0.000119240522         156.227675        0.101014329        -162.144421    4.85694023e-005         153.616461
                  3.51916951e-005         154.562189       0.0348805878         40.0570015    4.85694215e-005         153.616459       0.0830383927         140.655559

         180000000       0.102559586        -167.806147     5.9832546e-005         149.337876       0.0132445326        -55.6526446    3.72782879e-005         147.584241
                  5.98325603e-005         149.337885       0.0877548589          131.25979     0.000126173733         149.345511       0.0359111407         40.1819427
                     0.0132445373        -55.6526297     0.000126173732         149.345512        0.102463134        -167.912307    5.13749408e-005         146.556864
                  3.72782852e-005         147.584242        0.035911154         40.1819065    5.13749452e-005         146.556851       0.0877623605         131.424093

         190000000         0.1033522        -173.554582    6.32521568e-005         142.424497       0.0121662926        -68.3696757    3.93199668e-005         140.555334
                  6.32521737e-005         142.424505       0.0922792632         122.384885     0.000132936812         142.434075       0.0371534999         40.4818724
                     0.0121662973        -68.3696639     0.000132936811         142.434076        0.103196317        -173.654939    5.41006928e-005         139.465358
                  3.93199645e-005         140.555335       0.0371535144         40.4818309    5.41007073e-005         139.465341       0.0922669153         122.546558

         200000000        0.10336685        -179.246228    6.66038582e-005         135.461906       0.0111313382        -83.0875644    4.13005318e-005         133.497541
                   6.6603877e-005         135.461912       0.0963550834          113.80618     0.000139491148         135.515065       0.0386457998         40.8653827
                     0.0111313425        -83.0875549     0.000139491147         135.515066        0.103147688        -179.339553    5.67279049e-005         132.366627
                  4.13005302e-005         133.497543       0.0386458147         40.8653354    5.67279153e-005         132.366609       0.0963225266          113.96427

         210000000       0.102727865         175.093876    6.98700292e-005         128.453795        0.010291927        -100.149605    4.32113814e-005         126.415274
                  6.98700494e-005           128.4538        0.100076015         105.511761     0.000145819402         128.594219       0.0404252934         41.1954885
                     0.0102919309        -100.149597     0.000145819402          128.59422        0.102442291         175.008918    5.92486955e-005         125.266301
                  4.32113805e-005         126.415276       0.0404253072         41.1954357    5.92487108e-005         125.266278        0.100023282         105.665283

         220000000       0.101361881         169.440051    7.30272065e-005         121.413034      0.00983043698        -119.543593    4.50407219e-005         119.323911
                  7.30272274e-005         121.413037        0.103336417         97.4968217     0.000151890134         121.682562       0.0425133017         41.3768759
                    0.00983044033        -119.543585     0.000151890134         121.682562        0.101007562         169.364918    6.16504478e-005         118.178779
                  4.50407217e-005         119.323913       0.0425133128          41.376819    6.16504545e-005         118.178752        0.103263806         97.6450372

         230000000      0.0991870949          163.82467     7.6052474e-005         114.362357      0.00991643595        -140.355876    4.67768173e-005         112.248379
                  7.60524949e-005         114.362359        0.105871001         89.7122437     0.000157681441         114.802999       0.0449024713         41.3505679
                    0.00991643874        -140.355869     0.000157681441         114.802999       0.0987626687         163.761193    6.39234556e-005         111.129999
                  4.67768177e-005          112.24838       0.0449024781         41.3505092    6.39234648e-005         111.129974        0.105778932         89.8546963

         240000000       0.096413339         158.247678    7.89312317e-005         107.303625        0.010621383        -160.696781    4.84150695e-005         105.188584
                   7.8931252e-005         107.303625        0.107888784         82.1454266     0.000163197989          107.95774       0.0475709088          41.026382
                     0.0106213853        -160.696776      0.00016319799         107.957741       0.0959183975         158.197922    6.60687544e-005         104.119951
                  4.84150703e-005         105.188584       0.0475709103         41.0263244    6.60687616e-005         104.119924        0.107777852         82.2814555

         250000000      0.0928554174         152.628858    8.16465793e-005         100.257907       0.0119187606        -179.104621    4.99515183e-005         98.1686298
                  8.16465983e-005         100.257906        0.109131944         74.8527044     0.000168419477         101.160164       0.0505101688         40.3816398
                     0.0119187624        -179.104616     0.000168419478         101.160165       0.0922902737         152.595055     6.8083576e-005         97.1677661
                  4.99515195e-005         98.1686293       0.0505101647          40.381586    6.80835781e-005         97.1677375         0.10900307         74.9819313

         260000000      0.0886264466         147.052681    8.41844485e-005         93.2395462        0.013665887         164.903459      5.138135e-005         91.2002883
                  8.41844656e-005         93.2395445        0.109611913         67.7508088     0.000173363142         94.4257057       0.0536620418         39.4084052
                     0.0136658885         164.903462     0.000173363143         94.4257059       0.0879927128         147.037947    6.99721964e-005         90.2869773
                  5.13813513e-005         91.2002873       0.0536620325         39.4083576    6.99721973e-005         90.2869534        0.109465894         67.8727204

         270000000      0.0838598923         141.547297    8.65370638e-005         86.2598398       0.0157141154         151.085719    5.27049915e-005          84.291955
                  8.65370786e-005         86.2598375        0.109387837         60.8329965     0.000178056312         87.7614198       0.0569701657         38.1058382
                     0.0157141165         151.085721     0.000178056313         87.7614198       0.0831604284         141.555596      7.174456e-005         83.4837016
                  5.27049926e-005         84.2919536       0.0569701526         38.1057984      7.174456e-005         83.4836796        0.109225577         60.9469893

         280000000       0.078268057         135.908053    8.87019353e-005         79.3412064       0.0179864667         139.038679    5.39322574e-005         77.4685508
                  8.87019474e-005         79.3412038        0.108166783         54.2392616     0.000182486926          81.175798       0.0604251333         36.4841166
                     0.0179864676          139.03868     0.000182486926          81.175798       0.0775057584         135.943363    7.34102519e-005         76.7734462
                  5.39322584e-005         77.4685492       0.0604251182         36.4840855    7.34102481e-005         76.7734272        0.107989407         54.3450251

