! Created Wed Feb 27 12:13:21 2019
# hz S ma R 50
! 4 Port Network Data from SP1.SP block
! freq  magS11  angS11  magS12  angS12  magS13  angS13  magS14  angS14  
!       magS21  angS21  magS22  angS22  magS23  angS23  magS24  angS24  
!       magS31  angS31  magS32  angS32  magS33  angS33  magS34  angS34  
!       magS41  angS41  magS42  angS42  magS43  angS43  magS44  angS44  
!     
                 0     0.00917746161   -1.68712422e-011    3.96243523e-007        0.499264255     0.000137556135   -1.38619925e-009     3.2189596e-007        0.461966512
                  3.96252058e-007        0.499264167       0.0325886293        -17.1488065    4.89311128e-007        0.499560328      0.00153083939         70.5963976
                   0.000137324075    -1.3885201e-009    4.89308186e-007        0.499561435      0.00926413793   -2.53487055e-011    3.94926537e-007        0.462163309
                  3.21800859e-007        0.462095356      0.00153073621         70.6076537    3.94931229e-007        0.462185772       0.0325854682        -17.1468931

          10000000      0.0103888173         10.1694801    7.20061826e-006         79.6987038      0.00232377627         81.0887677    5.78085544e-006         79.6259675
                  7.20061827e-006         79.6987039       0.0327751725        -15.5707049    9.05788994e-006         79.7891128       0.0037088397         77.9134551
                    0.00232377628         81.0887673    9.05788995e-006         79.7891128       0.0103829178          10.098083    7.19024455e-006         79.6677905
                  5.78085543e-006         79.6259674      0.00370883972          77.913455    7.19024456e-006         79.6677905       0.0327964625         -15.576349

          20000000      0.0115746402         17.1175998    1.37785322e-005         80.4177155      0.00464737515          81.450719    1.10600002e-005         80.3174737
                  1.37785322e-005         80.4177151       0.0337830821        -30.7128836    1.73349447e-005         80.4920597      0.00726376719         76.0004358
                    0.00464737913         81.4507957    1.73349444e-005         80.4920601       0.0115624897          16.988904    1.37544091e-005         80.3625064
                       1.106e-005         80.3174741      0.00726377572         76.0005818     1.3754409e-005         80.3625067       0.0338113829        -30.7288254

          30000000      0.0127573588         23.3373723     2.0294986e-005         79.7326896      0.00698535603         80.6277757    1.62860221e-005         79.5989962
                  2.02949863e-005         79.7326895       0.0347698185         -45.539572    2.55337189e-005         79.8109915       0.0107077372         72.7766649
                    0.00698535818         80.6277405    2.55337189e-005         79.8109919       0.0127348084         23.1663006    2.02520276e-005          79.659767
                  1.62860221e-005         79.5989967       0.0107077398          72.776654    2.02520275e-005         79.6597675       0.0348071563        -45.5594641

          40000000      0.0141118414         28.1764662    2.68104032e-005         78.5988641      0.00932260924         79.6778629    2.15067631e-005         78.4355319
                  2.68104032e-005         78.5988645       0.0359740177        -60.1477687    3.37286285e-005         78.6864166       0.0139713156         69.3926214
                    0.00932260638         79.6778601    3.37286284e-005         78.6864165       0.0140767458         27.9799199    2.67420836e-005         78.5142568
                   2.1506763e-005          78.435532       0.0139713069         69.3926381    2.67420834e-005         78.5142569       0.0360249052        -60.1647252

          50000000      0.0156187983         31.7898695    3.33619776e-005         77.2350476       0.0116282534         78.2836954    2.67519598e-005         77.0477469
                  3.33619778e-005         77.2350475       0.0375165631        -74.5076244    4.19652628e-005         77.3347388       0.0169922122         65.7648416
                     0.0116282534         78.2837106    4.19652627e-005         77.3347389        0.015569545         31.5807028    3.32610984e-005         77.1452955
                  2.67519597e-005         77.0477472       0.0169922062         65.7648638    3.32610983e-005         77.1452958       0.0375819313        -74.5151078

          60000000      0.0172196026         34.5195603    3.99826611e-005         75.7131795       0.0139192736          76.842197    3.20487574e-005         75.5075261
                  3.99826611e-005         75.7131794       0.0393288962        -88.8256753    5.02835874e-005         75.8281464       0.0197475199         62.2365635
                     0.0139192747         76.8422044    5.02835874e-005         75.8281466       0.0171553521         34.3055086    3.98420766e-005         75.6252106
                  3.20487573e-005         75.5075265       0.0197475164         62.2365729    3.98420766e-005         75.6252107       0.0394082109        -88.8169821

          70000000      0.0188966443         36.3689935    4.66848163e-005         74.0672967       0.0161979628         74.9997189      3.740763e-005         73.8486398
                  4.66848162e-005         74.0672966       0.0415824934         -102.82497    5.86992322e-005         74.2006156       0.0222423115         58.6189766
                     0.0161979632         74.9997204    5.86992323e-005         74.2006157       0.0188170268         36.1551368    4.64982281e-005         73.9878312
                  3.74076301e-005         73.8486401       0.0222423093         58.6189767    4.64982282e-005         73.9878313       0.0416736856        -102.795507

          80000000      0.0206244788         37.7005082    5.34808998e-005         72.3088362       0.0184696602         73.1373762    4.28401378e-005         72.0817463
                  5.34808997e-005         72.3088361       0.0442518246        -116.473564    6.72272758e-005         72.4639733       0.0244485779         55.2194055
                     0.0184696601         73.1373768    6.72272758e-005         72.4639734       0.0205291566         37.4896187    5.32435594e-005         72.2442288
                  4.28401379e-005         72.0817464        0.024448577         55.2194067    5.32435595e-005         72.2442289       0.0443523661        -116.420763

          90000000      0.0223882244         38.5001983    6.03830797e-005         70.4383931       0.0207336803         71.2630568    4.83576803e-005         70.2060296
                  6.03830797e-005          70.438393        0.047318071        -129.909883    7.58826742e-005         70.6192561       0.0263738204         52.0691373
                     0.0207336807         71.2630548    7.58826743e-005         70.6192561       0.0222771405         38.2934351    6.00920678e-005         70.3939747
                  4.83576804e-005         70.2060297       0.0263738193           52.06914    6.00920678e-005         70.3939747       0.0474243482         -129.83288

         100000000      0.0241810399         38.9875885    6.73782852e-005         68.4650289       0.0229905707         69.3791009    5.39513811e-005         68.2296358
                  6.73782852e-005         68.4650289       0.0508250424        -142.842219    8.46500585e-005         68.6753308       0.0280172611         49.2257583
                     0.0229905712         69.3791001    8.46500585e-005         68.6753309       0.0240540364         38.7859393    6.70332411e-005         68.4451682
                  5.39513812e-005         68.2296359       0.0280172612         49.2257584    6.70332412e-005         68.4451682       0.0509331195        -142.742633

         110000000      0.0259767748         39.1025809     7.4452411e-005         66.3952782        0.025238452         67.4874559    5.96114379e-005         66.1578311
                  7.44524108e-005         66.3952784       0.0547122344        -155.182448    9.35127564e-005         66.6386574       0.0293985337         46.7244834
                     0.0252384501         67.4874592    9.35127544e-005          66.638658       0.0258340093         38.9064141    7.40554322e-005         66.4030695
                  5.96114381e-005         66.1578311       0.0293985355         46.7244798    7.40554327e-005         66.4030693       0.0548176938        -155.063099

         120000000      0.0277888823          39.022002    8.15942835e-005         64.2267462       0.0274789508         65.5904733    6.53302519e-005         63.9867709
                  8.15942831e-005         64.2267468       0.0589681057        -167.133271      0.00010245776         64.5069212       0.0305588778         44.5901452
                     0.0274789445         65.5904826     0.000102457747         64.5069244       0.0276302977         38.8318045    8.11497414e-005         64.2639565
                  6.53302522e-005         63.9867709       0.0305588816         44.5901366    8.11497423e-005         64.2639556       0.0590671706        -166.997621

         130000000      0.0295989005         38.7032672    8.87778045e-005         61.9689283       0.0297113907         63.6911167    7.10880714e-005         61.7247894
                  8.87778043e-005         61.9689294       0.0635661997        -178.594008     0.000111454001         62.2893187       0.0315422521         42.8650438
                     0.0297113794         63.6911341     0.000111453945         62.2893306       0.0294246554         38.5188646    8.82924585e-005          62.035997
                  7.10880719e-005         61.7247892       0.0315422577         42.8650299    8.82924599e-005         62.0359952       0.0636555202        -178.446024

         140000000      0.0314173271         38.2554969    9.59558868e-005         59.6331023       0.0319361077         61.7886276    7.68476284e-005         59.3825324
                  9.59558872e-005         59.6331041       0.0682950396         170.515629     0.000120445269           59.99665       0.0323942026         41.5718076
                     0.0319360921         61.7886545     0.000120445043          59.996682       0.0312274977         38.0769645    9.54386953e-005         59.7294955
                  7.68476291e-005         59.3825321       0.0323942097         41.5717887    9.54386972e-005         59.7294928       0.0683718609         170.672374

         150000000      0.0332228741           37.64002     0.000103106022         57.2279448       0.0341523908         59.8850846    8.25908628e-005         56.9676977
                   0.000103106023         57.2279475       0.0731982042         160.080004     0.000129405106          57.637752       0.0331895754          40.684808
                     0.0341523723          59.885121     0.000129404024         57.6377191         0.03301767         37.4668665     0.000102566802         57.3520187
                  8.25908637e-005         56.9676972       0.0331895839         40.6847847     0.000102566805         57.3520154        0.073260106           160.2422

         160000000      0.0350314639         36.9354173      0.00011018836         54.7628261        0.036360607         57.9796206    8.82856119e-005          54.489053
                   0.000110188354         54.7628266       0.0781958453         150.064157     0.000138279371         55.2240254       0.0339988762          40.190922
                     0.0363605875         57.9796655     0.000138279261         55.2215152       0.0348108863         36.7675774      0.00010963805         54.9120606
                  8.82856129e-005         54.4890522       0.0339988861         40.1908947     0.000109638048         54.9120564       0.0782408499         150.229037

         170000000      0.0368220614         36.1092564     0.000117149661         52.2559592       0.0385601376         56.0739134    9.38885977e-005         51.9647545
                   0.000117149669         52.2559594       0.0830115903         140.490035     0.000147006714         52.7609535       0.0348805761         40.0570337
                      0.038560119         56.0739649     0.000147009555         52.7616574       0.0365863456         35.9463601     0.000116600155         52.4273374
                  9.38885988e-005         51.9647534       0.0348805876         40.0570022     0.000116600161         52.4273274        0.083038393         140.655559

         180000000      0.0386115866         35.2191617     0.000123966248         49.7148085       0.0407512633         54.1670104     9.9379528e-005         49.4018816
                   0.000123966256         49.7148099       0.0877548595         131.259791     0.000155572393         50.2688676       0.0359111406         40.1819435
                      0.040751247         54.1670659     0.000155572988         50.2693157       0.0383608315         35.0609581      0.00012342874         49.9047458
                  9.93795291e-005         49.4018802       0.0359111539         40.1819073     0.000123428746          49.904733       0.0877623609         131.424094

         190000000      0.0403830695         34.2389334     0.000130601892         47.1562179       0.0429334861         52.2605326     0.000104728163         46.8171474
                     0.0001306019         47.1562191       0.0922792639         122.384885      0.00016392005         47.7604042       0.0371534997         40.4818733
                     0.0429334734         52.2605898     0.000163920272         47.7606583       0.0401173726         34.0848843     0.000130087251         47.3606246
                   0.000104728164         46.8171457       0.0371535143         40.4818317      0.00013008725         47.3606073       0.0922669158         122.546558

         200000000      0.0421504888          33.211326      0.00013700721         44.5949203         0.04510694         50.3533138     0.000109893469         44.2255837
                   0.000137007218          44.594921       0.0963550841         113.806181     0.000171991688         45.2490592       0.0386457997         40.8653837
                     0.0451069315         50.3533704     0.000171991814         45.2492224         0.04186983          33.061181     0.000136526085         44.8095683
                   0.000109893469         44.2255818       0.0386458147         40.8653364     0.000136526069         44.8095476       0.0963225271         113.964271

         210000000      0.0438944626         32.1172132     0.000143177516          42.042831       0.0472712895         48.4465471     0.000114869584         41.6390389
                   0.000143177524         42.0428312        0.100076015         105.511762     0.000179782127         42.7463499       0.0404252934         41.1954896
                     0.0472712852          48.446601      0.00017978222         42.7464636       0.0435988948         31.9705476     0.000142738268         42.2632185
                   0.000114869584         41.6390368       0.0404253072         41.1954367     0.000142738231         42.2631982        0.100023282         105.665283

         220000000      0.0456318826         30.9866048     0.000149090291         39.5132909       0.0494265636         46.5393398     0.000119636514          39.070962
                   0.000149090298         39.5132907        0.103336418          97.496822     0.000187264298         40.2650049       0.0425133017          41.376877
                     0.0494265634         46.5393896     0.000187264378         40.2650878       0.0453213328         30.8432381     0.000148699611         39.7346318
                   0.000119636513         39.0709599       0.0425133128         41.3768202     0.000148699555         39.7346164        0.103263807         97.6450374

         230000000      0.0473476178         29.8021305     0.000154716458         37.0242398       0.0515723546         44.6329189     0.000124169188         36.5397858
                   0.000154716465         37.0242392        0.105871002         89.7122441     0.000194403166         37.8222823       0.0449024713          41.350569
                     0.0515723579         44.6329635     0.000194403238         37.8223441       0.0470220534         29.6617387     0.000154379686         37.2417613
                   0.000124169187         36.5397836       0.0449024782         41.3505104      0.00015437962         37.2417535        0.105778933         89.8546965

         240000000      0.0490547374         28.5890108      0.00016007313         34.5781483       0.0537087207          42.726259      0.00012847834         34.0482025
                   0.000160073136         34.5781476        0.107888785         82.1454271     0.000201219385         35.4205011       0.0475709089         41.0263832
                     0.0537087267         42.7262978     0.000201219452         35.4205473       0.0487140766         28.4514775     0.000159791613         34.7871963
                   0.000128478338         34.0482005       0.0475709104         41.0263256     0.000159791548          34.787196        0.107777853         82.2814557

         250000000      0.0507382051         27.3339653     0.000165167201         32.1968341       0.0558353686          40.820377      0.00013256747         31.6182805
                   0.000165167207         32.1968332        0.109131945         74.8527049     0.000207721139         33.0805982        0.050510169          40.381641
                     0.0558353766         40.8204098       0.0002077212         33.0806324       0.0503824353         27.1990562     0.000164939457         32.3924288
                   0.000132567467         31.6182789       0.0505101649         40.3815872     0.000164939401         32.3924338        0.109003071         74.9819316

         260000000        0.05241126         26.0558445     0.000170000891         29.8834614       0.0579522684          38.914397     0.000136435715         29.2540453
                   0.000170000896         29.8834605        0.109611914         67.7508094     0.000213910998         30.8054702        0.053662042         39.4084064
                     0.0579522774         38.9144238     0.000213911051         30.8054951       0.0520403304         25.9234919     0.000169822132         30.0612488
                   0.000136435712         29.2540439       0.0536620328         39.4083588      0.00016982209         30.0612562        0.109465894         67.8727207

         270000000      0.0540597236         24.7437876     0.000174604768         27.6426333       0.0600591746          37.009203      0.00014010479         26.9608922
                   0.000174604772         27.6426324        0.109387838         60.8329972     0.000219825693         28.5995182        0.056970166         38.1058394
                     0.0600591838         37.0092241     0.000219825738         28.5995359       0.0536736627         24.6138198     0.000174465867         27.7988806
                   0.000140104787         26.9608913       0.0569701529         38.1057996     0.000174465839         27.7988882        0.109225577         60.9469898

         280000000       0.055696196         23.4127589      0.00017903184         25.4958819       0.0621560187         35.1040112     0.000143615178         24.7607838
                   0.000179031842         25.4958811        0.108166783         54.2392624     0.000225528572         26.4831983       0.0604251337         36.4841179
                     0.0621560274         35.1040271     0.000225528608         26.4832104        0.055295007         23.2851395     0.000178919222          25.626602
                   0.000143615176         24.7607831       0.0604251185         36.4840867     0.000178919204         25.6266085        0.107989408         54.3450256

