! Created Tue Feb 26 22:48:54 2019
# hz S ma R 50
! 4 Port Network Data from SP1.SP block
! freq  magS11  angS11  magS12  angS12  magS13  angS13  magS14  angS14  
!       magS21  angS21  magS22  angS22  magS23  angS23  magS24  angS24  
!       magS31  angS31  magS32  angS32  magS33  angS33  magS34  angS34  
!       magS41  angS41  magS42  angS42  magS43  angS43  magS44  angS44  
!     
                 0     0.00939067338   -3.30475979e-013    5.07093762e-008        0.503303797     0.000174657242   -2.36890445e-011    3.85914436e-008        0.454073036
                  5.07098468e-008        0.503335992       0.0327123845        -17.0780539    6.49218998e-008         0.50431634      0.00155094333         68.6685206
                    0.00017193761   -2.40782846e-011    6.49203243e-008        0.504315534      0.00936846293   -5.94349643e-013    4.84088845e-008        0.452394546
                  3.85829341e-008        0.453963749      0.00155099533         68.6634836    4.84061937e-008        0.452402073       0.0327527466        -17.0527427

          10000000      0.0103031747          5.2561897    1.01325118e-006         81.4833231      0.00129647443          77.443508    7.87980343e-007          81.744551
                  1.01325117e-006         81.4833233       0.0331237836        -16.6145052    1.31171241e-006          81.180349      0.00273210795         74.9768666
                    0.00129647444         77.4435075    1.31171242e-006          81.180349       0.0102976254         5.47983946    1.00607545e-006         81.4855647
                  7.87980344e-007          81.744551      0.00273210796         74.9768663    1.00607546e-006         81.4855648       0.0331485014        -16.5879651

          20000000      0.0110652353         8.81955283    1.95208558e-006         82.0164506      0.00261902876          79.488294    1.52077938e-006         82.1407948
                  1.95208555e-006         82.0164511       0.0346349697        -32.4296714    2.52193025e-006         81.8152524      0.00534743598         73.1686867
                    0.00261901778         79.4891337    2.52193018e-006         81.8152527       0.0110678685         9.28728913     1.9380074e-006         81.9700596
                  1.52077932e-006         82.1407946      0.00534742334            73.1688    1.93800741e-006          81.970059       0.0346553297        -32.3971427

          30000000      0.0116585402         12.6905695    2.88161776e-006         81.4676972      0.00396087713         79.5794418    2.24581136e-006         81.5048471
                  2.88161778e-006         81.4676974       0.0364041905        -47.4459599    3.71995561e-006         81.3221236      0.00787299462         69.5733256
                    0.00396088067         79.5792827     3.7199556e-006         81.3221235       0.0116821496         13.3612252    2.85984802e-006         81.3875101
                  2.24581135e-006         81.5048473      0.00787299311         69.5733242      2.859848e-006         81.3875101       0.0364162439        -47.4081973

          40000000       0.012321294         16.1047075    3.81106065e-006         80.5776718      0.00530672004         79.4860385    2.97000295e-006         80.5520742
                  3.81106065e-006         80.5776713       0.0385652203        -61.7033588    4.91762642e-006         80.4691863       0.0102420535          65.718079
                    0.00530671987          79.486016    4.91762645e-006         80.4691867       0.0123723839         16.9336918    3.78045652e-006         80.4733459
                  2.97000295e-006         80.5520742       0.0102420394         65.7180876    3.78045652e-006         80.4733463       0.0385704477        -61.6635221

          50000000      0.0130750853         18.9971348    4.74633629e-006         79.5066312      0.00662638467         78.6316432     3.6978509e-006         79.4350186
                  4.74633628e-006         79.5066309       0.0411289986        -75.1960503    6.12253107e-006         79.4263695         0.01240013         61.4607073
                    0.00662638328         78.6316189    6.12253108e-006         79.4263698       0.0131583368          19.946983    4.70556957e-006         79.3875807
                   3.6978509e-006         79.4350187       0.0124001235         61.4607203    4.70556955e-006         79.3875811       0.0411275784        -75.1589751

          60000000      0.0138815586         21.4951355    5.69262425e-006          78.302379      0.00793632303         77.7099635    4.43341175e-006         78.1980122
                  5.69262425e-006         78.3023789       0.0439269856        -88.2033138    7.34126661e-006         78.2461683       0.0143216108         57.2535597
                    0.00793632202         77.7099484    7.34126663e-006         78.2461684       0.0140007427          22.535574    5.64032659e-006         78.1781769
                  4.43341176e-006         78.1980124       0.0143216072          57.253554    5.64032661e-006         78.1781772       0.0439197113        -88.1719764

          70000000      0.0147527745         23.4088876     6.6519361e-006          76.987359      0.00923727537         76.0937226    5.17830679e-006         76.8617498
                  6.65193609e-006         76.9873589       0.0470305049        -100.588752    8.57651663e-006         76.9529371       0.0160193085         52.8291564
                    0.00923727568         76.0937146    8.57651665e-006         76.9529372       0.0149096257         24.5179741    6.58687159e-006         76.8673218
                   5.1783068e-006         76.8617499       0.0160193062         52.8291563     6.5868716e-006          76.867322       0.0470187901        -100.565332

          80000000      0.0156591443         25.0242526    7.62628183e-006         75.5674418       0.0105349734         74.4495384    5.93434558e-006          75.430503
                  7.62628182e-006         75.5674417       0.0503369828        -112.458355    9.83082292e-006         75.5538582       0.0174541354         48.5893194
                     0.0105349701         74.4495412    9.83082294e-006         75.5538583       0.0158559677         26.1827428    7.54748908e-006          75.460297
                   5.9343456e-006          75.430503       0.0174541351         48.5893056    7.54748909e-006         75.4602971       0.0503233732        -112.443641

          90000000      0.0166021554         26.2142168    8.61774718e-006         74.0399963       0.0118288406         72.7882228    6.70341848e-006         73.8997452
                  8.61774717e-006         74.0399963       0.0537652685        -124.055549    1.11068657e-005         74.0470315       0.0186251614         44.5727473
                     0.0118288414          72.788226    1.11068657e-005         74.0470316       0.0168398281         27.4089631     8.5245966e-006         73.9530839
                  6.70341848e-006         73.8997453       0.0186251612         44.5727475    8.52459661e-006         73.9530839       0.0537525213        -124.049638

         100000000      0.0175682235         27.1884655    9.62462619e-006         72.4121817       0.0131194347         71.1135867    7.48454541e-006         72.2750667
                  9.62462618e-006         72.4121817       0.0573240448        -135.226389    1.24025043e-005         72.4399461       0.0195189726         40.8519732
                     0.0131194343          71.113594    1.24025043e-005         72.4399461       0.0178481744         28.4079267    9.51698105e-006         72.3515507
                  7.48454541e-006         72.2750667       0.0195189721         40.8519739    9.51698107e-006         72.3515507       0.0573152527          -135.2286

         110000000      0.0185453042         27.7971813    1.06451495e-005          70.689023       0.0144049601         69.4257899    8.27669185e-006         70.5596571
                  1.06451495e-005         70.6890231       0.0609498734        -145.966071    1.37155125e-005         70.7378066       0.0201402976         37.4812007
                     0.0144049557         69.4258062    1.37155125e-005         70.7378064       0.0188674701         29.0367755    1.05233543e-005         70.6590008
                  8.27669184e-006          70.559657       0.0201402893         37.4812171    1.05233543e-005         70.6590009       0.0609474743         -145.97493

         120000000      0.0195370167         28.2536016     1.1678143e-005         68.8671899       0.0156871905         67.7307304    9.07926449e-006         68.7481741
                   1.1678143e-005         68.8671901       0.0646145428        -156.503992    1.50444211e-005         68.9375188       0.0205122263         34.5217084
                     0.0156871819         67.7307602     1.5044421e-005         68.9375185       0.0199022849         29.5065356    1.15429841e-005         68.8702719
                  9.07926448e-006         68.7481739       0.0205122082         34.5217536    1.15429841e-005         68.8702721       0.0646218399         -156.51809

         130000000      0.0205338944         28.4607891    1.27201506e-005         66.9552683       0.0169655262         66.0317844    9.88990338e-006          66.847341
                  1.27201505e-005         66.9552686       0.0683186684         -166.77954    1.63848456e-005         67.0476962       0.0206577598         32.0734753
                     0.0169655139         66.0318297    1.63848453e-005         67.0476958       0.0209420908         29.7245225    1.25728969e-005         66.9921426
                  9.88990337e-006         66.8473409        0.020657732         32.0735621    1.25728969e-005         66.9921429        0.068338621        -166.797244

         140000000      0.0215398936         28.5584445    1.37645387e-005         64.9633395       0.0182404856         64.3285252    1.07037138e-005         64.8658594
                  1.37645387e-005         64.9633398       0.0718944418        -176.707258    1.77283686e-005         65.0783772       0.0206040475         30.2310081
                      0.018240471         64.3285857    1.77283681e-005         65.0783769       0.0219916269         29.8287046    1.36069193e-005         65.0333577
                  1.07037138e-005         64.8658595       0.0206040125         30.2311489    1.36069194e-005          65.033358       0.0719294514        -176.726878

         150000000      0.0225406194         28.4653618    1.48084515e-005         62.8994679       0.0195113606         62.6226859    1.15185839e-005         62.8102285
                  1.48084515e-005         62.8994681        0.075413044         173.602394    1.90713691e-005         63.0376189       0.0204139637           29.05623
                      0.019511345         62.6227597    1.90713684e-005         63.0376189       0.0230355998         29.7416254    1.46423873e-005         63.0004286
                  1.15185838e-005         62.8102288       0.0204139262         29.0564344    1.46423874e-005          63.000429       0.0754651636         173.582591

         160000000      0.0235466681         28.2918655    1.58463694e-005         60.7721672        0.020778789         60.9141351    1.23303395e-005         60.6877076
                  1.58463694e-005         60.7721674       0.0788316717         164.130726    2.04068434e-005         60.9338893       0.0201498881         28.6535635
                     0.0207787739         60.9142189    2.04068425e-005         60.9338896       0.0240852911         29.5712776    1.56740344e-005         60.9006351
                  1.23303394e-005          60.687708       0.0201498543         28.6538358    1.56740346e-005         60.9006356       0.0789024599         164.112508

         170000000      0.0245423525         27.9726682    1.68704952e-005         58.5983804       0.0220421029         59.2040634    1.31329893e-005         58.5145686
                  1.68704953e-005         58.5983805       0.0819327501          154.94204    2.17248818e-005         58.7839994       0.0198754465         29.0998132
                     0.0220420894         59.2041534    2.17248808e-005         58.7840003       0.0251242407         29.2555332     1.6694289e-005         58.7502245
                  1.31329891e-005          58.514569       0.0198754236         29.1001504    1.66942893e-005         58.7502251        0.082023214         154.926864

         180000000      0.0255406498         27.5928896    1.78776493e-005         56.3851852       0.0233019036         57.4922093     1.3923919e-005         56.2970356
                  1.78776494e-005          56.385185       0.0848501549         145.938485    2.30214577e-005         56.5949882       0.0196899748         30.3654463
                     0.0233018926         57.4923017    2.30214566e-005         56.5949896       0.0261660046         28.8772435    1.76998529e-005         56.5554304
                  1.39239189e-005          56.297036       0.0196899695         30.3658363    1.76998531e-005         56.5554309       0.0849608155         145.927865

         190000000      0.0265283964         27.1016348    1.88623949e-005         54.1487213       0.0245576664         55.7801673    1.46987976e-005         54.0505778
                   1.8862395e-005         54.1487212       0.0874904823         137.160319    2.42896617e-005         54.3828715       0.0196890806         32.3875519
                     0.0245576585         55.7802588    2.42896605e-005         54.3828731        0.027196743         28.3879713    1.86852485e-005         54.3316915
                  1.46987974e-005         54.0505781       0.0196890983         32.3879727    1.86852488e-005          54.331692       0.0876211808         137.155675

         200000000      0.0275167236         26.5636578     1.9817138e-005         51.9025468        0.025809828         54.0669102    1.54515919e-005         51.7885858
                  1.98171381e-005         51.9025466       0.0896540929         128.577644    2.55198544e-005         52.1610816       0.0199530407         34.9955137
                     0.0258098232         54.0669977    2.55198533e-005         52.1610836       0.0282281004         27.8506524    1.96428582e-005         52.0923869
                  1.54515918e-005         51.7885859       0.0199530842         34.9959364    1.96428585e-005         52.0923873       0.0898043586         128.580276

         210000000      0.0284889201          25.940371    2.07410243e-005         49.6586697       0.0270578387         52.3529797    1.61812712e-005         49.5227009
                  2.07410244e-005         49.6586694       0.0914732176         120.178602    2.67109661e-005         49.9415418       0.0205619812         37.8387374
                      0.027057837         52.3530612     2.6710965e-005          49.941544       0.0292428725         27.2289331    2.05713784e-005         49.8491306
                   1.6181271e-005         49.5227009       0.0205620499         37.8391321    2.05713786e-005         49.8491308       0.0916421693         120.189684

         220000000      0.0294600833         25.2799381    2.16302111e-005         47.4301597       0.0283021938         50.6381986    1.68845314e-005         47.2656723
                  2.16302112e-005         47.4301593       0.0928768564         111.974485    2.78581275e-005         47.7371888       0.0215643916         40.5757186
                     0.0283021947         50.6382725    2.78581265e-005         47.7371911       0.0302565267          26.569216    2.14666393e-005         47.6146457
                  1.68845313e-005         47.2656723       0.0215644818         40.5760615    2.14666395e-005         47.6146459       0.0930631093         111.995077

         230000000      0.0304171927         24.5493077     2.2479441e-005         45.2342863       0.0295423907          48.923707     1.7556999e-005         45.0349128
                  2.24794411e-005         45.2342858       0.0936223885         103.938485    2.89546657e-005         45.5651323       0.0229616502         42.9209968
                     0.0295423939         48.9237724    2.89546649e-005         45.5651346       0.0312555705         25.8402333    2.23231144e-005         45.4063131
                  1.75569988e-005         45.0349127       0.0229617558         42.9212757    2.23231145e-005         45.4063132       0.0938242062         103.969593

         240000000      0.0313719631         23.7886994    2.32909627e-005         43.0740443       0.0307788438         47.2086031    1.81998154e-005         42.8335931
                  2.32909628e-005         43.0740438       0.0939427169         96.0416436     3.0003469e-005         43.4283306       0.0247248247         44.5928339
                     0.0307788487         47.2086595    3.00034683e-005         43.4283328       0.0322521115         25.0807724    2.31422539e-005         43.2273008
                  1.81998152e-005          42.833593       0.0247249383         44.5930481     2.3142254e-005         43.2273008       0.0941579837         96.0843218

         250000000      0.0323108068         22.9724699    2.40644277e-005         40.9721692       0.0320110642          45.493634     1.8812267e-005         40.6842246
                  2.40644278e-005         40.9721688        0.093614751         88.3698284    3.10041206e-005         41.3492642       0.0268248669         45.5028508
                     0.0320110701         45.4936814    3.10041201e-005         41.3492663       0.0332322046         24.2667196    2.39231695e-005         41.1000286
                  1.88122668e-005         40.6842245       0.0268249816         45.5030073    2.39231696e-005         41.1000287       0.0938410811         88.4248965

         260000000      0.0332462057         22.1315015     2.4799398e-005          38.931693       0.0332394648          43.778214    1.93934782e-005         38.5907378
                  2.47993981e-005         38.9316926       0.0926514212         80.8233395    3.19560915e-005         39.3309055       0.0291833683         45.6510981
                     0.0332394712         43.7782528    3.19560912e-005         39.3309074       0.0342086458         23.4276762    2.46647666e-005         39.0284322
                   1.9393478e-005         38.5907377       0.0291834779         45.6512074    2.46647667e-005         39.0284323       0.0928861488         80.8918734

         270000000      0.0341649905         21.2449136    2.54996585e-005         36.9581429       0.0344635707         42.0629429    1.99457632e-005         36.5595288
                  2.54996585e-005         36.9581425       0.0911270351         73.3885189    3.28642205e-005         37.3787062       0.0317252928         45.0821501
                     0.0344635771         42.0629736    3.28642202e-005         37.3787078       0.0351679755         22.5440689    2.53699782e-005         37.0188896
                   1.9945763e-005         36.5595287       0.0317253921         45.0822234    2.53699782e-005         37.0188896       0.0913672844         73.4716811

         280000000       0.035079376         20.3375372      2.617126e-005         35.0761212       0.0356837816         40.3473321    2.04732374e-005          34.615108
                  2.61712599e-005         35.0761209       0.0887730715         66.2386282    3.37362472e-005         35.5168944       0.0344251122         43.8653686
                     0.0356837875         40.3473554    3.37362471e-005         35.5168956       0.0361226811         21.6395888    2.60440469e-005         35.0957427
                  2.04732372e-005         34.6151081       0.0344251973         43.8654155    2.60440469e-005         35.0957427       0.0890159504         66.3373367

