! Created Tue Feb 26 16:59:08 2019
# hz S ma R 50
! 4 Port Network Data from SP1.SP block
! freq  magS11  angS11  magS12  angS12  magS13  angS13  magS14  angS14  
!       magS21  angS21  magS22  angS22  magS23  angS23  magS24  angS24  
!       magS31  angS31  magS32  angS32  magS33  angS33  magS34  angS34  
!       magS41  angS41  magS42  angS42  magS43  angS43  magS44  angS44  
!     
                 0      0.0247488743        -23.4144829    1.10367994e-005         -116.10546      0.00154818387         72.1327384    8.54032195e-006        -117.684921
                  1.10367964e-005        -116.105461       0.0327123845        -17.0780539    8.60226915e-006        -118.143027      0.00155094333         68.6685206
                    0.00154823653         72.1168137    8.60224748e-006        -118.142764        0.024720067        -23.4628675     1.1023896e-005        -115.607747
                   8.5403046e-006        -117.684684      0.00155099533         68.6634836    1.10238938e-005        -115.607652       0.0327527466        -17.0527427

          10000000      0.0248873248        -21.8307667    2.98660957e-005        -107.506418      0.00243628359         75.5714836    2.48921252e-005        -107.207909
                  2.98660957e-005        -107.506418       0.0331237836        -16.6145052    2.78076791e-005        -107.208211      0.00273210795         74.9768666
                    0.00243628359         75.5714837    2.78076791e-005        -107.208211       0.0249242398        -21.8584419     2.8962085e-005         -107.43883
                  2.48921252e-005        -107.207909      0.00273210796         74.9768663     2.8962085e-005         -107.43883       0.0331485014        -16.5879651

          20000000      0.0278770156        -41.1021169     5.7104776e-005        -109.769838      0.00470927102         71.4734665    4.76559143e-005        -109.694688
                  5.71047765e-005        -109.769838       0.0346349697        -32.4296714    5.31954861e-005        -109.629984      0.00534743598         73.1686867
                    0.00470926889         71.4732523     5.3195486e-005        -109.629984       0.0279382465        -41.1714909    5.54148748e-005         -109.72274
                  4.76559141e-005        -109.694688      0.00534742334            73.1688    5.54148738e-005         -109.72274       0.0346553297        -32.3971427

          30000000      0.0322194163        -56.9319038    8.40259881e-005         -114.35123      0.00687646033          65.664108    7.01150815e-005        -114.388305
                  8.40259876e-005         -114.35123       0.0364041905        -47.4459599    7.82863581e-005        -114.289177      0.00787299462         69.5733256
                    0.00687647225           65.66408    7.82863564e-005        -114.289177       0.0323053164         -57.024099    8.15605918e-005        -114.321327
                  7.01150802e-005        -114.388306      0.00787299311         69.5733242    8.15605919e-005        -114.321327       0.0364162439        -47.4081973

          40000000      0.0374121005         -69.866002     0.000110877653        -119.598905      0.00890604026         59.3724678    9.24815747e-005        -119.710358
                   0.000110877653        -119.598905       0.0385652203        -61.7033588     0.000103294238        -119.588108       0.0102420535          65.718079
                    0.00890604619         59.3725057     0.000103294237        -119.588108        0.037521732        -69.9685903     0.000107635811        -119.583647
                  9.24815736e-005        -119.710358       0.0102420394         65.7180876     0.000107635812        -119.583647       0.0385704477        -61.6635221

          50000000      0.0431227497        -80.6717561     0.000137793738        -125.155616       0.0107638621         52.8611601     0.000114867437        -125.319776
                   0.000137793737        -125.155616       0.0411289986        -75.1960503     0.000128342112        -125.179881         0.01240013         61.4607072
                     0.0107638639          52.861125     0.000128342111         -125.17988       0.0432538829        -80.7791378     0.000133766911        -125.152497
                   0.000114867436        -125.319776       0.0124001235         61.4607203     0.000133766912        -125.152497       0.0411275784        -75.1589751

          60000000      0.0490552792        -90.1549609     0.000164900437        -130.900994       0.0124207634          46.222796     0.000137380157        -131.102283
                   0.000164900436        -130.900994       0.0439269856        -88.2033138     0.000153550097        -130.949134       0.0143216108         57.2535597
                     0.0124207621          46.222802     0.000153550097        -130.949133       0.0492044405        -90.2648277     0.000160074811        -130.907223
                   0.000137380156        -131.102283       0.0143216072          57.253554     0.000160074812        -130.907223       0.0439197113        -88.1719764

          70000000      0.0550975807        -98.6012728      0.00019224582         -136.77847       0.0138458854         39.4862955     0.000160063108        -137.004203
                    0.00019224582         -136.77847       0.0470305049        -100.588752     0.000178965672        -136.842067       0.0160193085         52.8291564
                     0.0138458859         39.4862936     0.000178965672        -136.842066       0.0552600899        -98.7129782     0.000186605976         -136.79111
                   0.000160063109        -137.004203       0.0160193062         52.8291563     0.000186605977         -136.79111       0.0470187901        -100.565332

          80000000      0.0611156238        -106.322525     0.000219880644        -142.763669       0.0150133852         32.6596502     0.000182966424        -143.003204
                   0.000219880644        -142.763669       0.0503369828        -112.458355      0.00020464123        -142.836126       0.0174541354         48.5893194
                     0.0150133844         32.6596485      0.00020464123        -142.836126       0.0612861054        -106.435939     0.000213411735        -142.779912
                   0.000182966424        -143.003203       0.0174541351         48.5893056     0.000213411735        -142.779912       0.0503233732        -112.443641

          90000000        0.06697112        -113.698362     0.000247884417         -148.85846       0.0159154766          25.747774     0.000206164925        -149.103154
                   0.000247884417         -148.85846       0.0537652685        -124.055549     0.000230656597        -148.934755       0.0186251614         44.5727473
                     0.0159154727         25.7477796     0.000230656598        -148.934755        0.067143763        -113.812904     0.000240571746         -148.87584
                   0.000206164925        -149.103154       0.0186251612         44.5727475     0.000240571746         -148.87584       0.0537525213        -124.049638

         100000000      0.0726090972        -120.672417     0.000276205896        -155.045806       0.0165270836         18.7223045     0.000229627147        -155.288744
                   0.000276205896        -155.045806       0.0573240447        -135.226389     0.000256970378        -155.122004       0.0195189726         40.8519732
                     0.0165270835         18.7223042     0.000256970378        -155.122004       0.0727774076        -120.787974     0.000268039851        -155.062253
                   0.000229627147        -155.288744       0.0195189721         40.8519739     0.000268039852        -155.062253       0.0573152527          -135.2286

         110000000      0.0779499095        -127.371606     0.000304808114        -161.319315       0.0168397806         11.5360328     0.000253333251        -161.555395
                   0.000304808115        -161.319315       0.0609498734        -145.966071     0.000283554651        -161.392451       0.0201402976         37.4812007
                     0.0168397783         11.5360396      0.00028355465        -161.392451        0.078107126        -127.488422     0.000295783667        -161.333275
                   0.000253333251        -161.555395       0.0201402893         37.4812171     0.000295783667        -161.333275       0.0609474743         -145.97493

         120000000      0.0829207331        -133.925869     0.000333672673        -167.687127       0.0168579939         4.18307066     0.000277278576        -167.913473
                   0.000333672675        -167.687126       0.0646145428        -156.503992     0.000310399436        -167.755898       0.0205122263         34.5217084
                     0.0168579915         4.18308508     0.000310399431        -167.755898         0.08306009        -134.043244      0.00032378856        -167.697448
                   0.000277278575        -167.913473       0.0205122082         34.5217536     0.000323788559        -167.697448       0.0646218399         -156.51809

         130000000       0.087388821        -140.345475     0.000362700774        -174.141584       0.0165800526        -3.42025768     0.000301391673        -174.357063
                   0.000362700777        -174.141584       0.0683186684         -166.77954      0.00033742015         -174.20553       0.0206577598         32.0734753
                     0.0165800517        -3.42023739     0.000337420142        -174.205529       0.0875031425        -140.462671     0.000351961995        -174.147692
                    0.00030139167        -174.357063        0.020657732         32.0735621     0.000351961989        -174.147692        0.068338621        -166.797244

         140000000      0.0913733645        -146.613182     0.000391737289         179.336928       0.0160027823        -11.3611247      0.00032555109         179.131784
                   0.000391737291         179.336928       0.0718944417        -176.707258     0.000364473326          179.27728       0.0206040475          30.231008
                     0.0160027832        -11.3611015     0.000364473319         179.277282         0.09145564        -146.729669     0.000380157405         179.335205
                   0.000325551088         179.131785       0.0206040125         30.2311489      0.00038015739         179.335206       0.0719294514        -176.726878

         150000000      0.0948612013        -152.800914     0.000420700919         172.745057       0.0151579571        -19.7662935     0.000349693816          172.54814
                   0.000420700921         172.745057        0.075413044         173.602394     0.000391487564         172.688279       0.0204139637         29.0562299
                     0.0151579599        -19.7662703     0.000391487561         172.688282       0.0949046589        -152.916006     0.000408297053         172.747458
                   0.000349693817         172.548142       0.0204139262         29.0564344     0.000408297025         172.747459       0.0754651636         173.582591

         160000000      0.0977334454        -158.925526     0.000449439364         166.091347       0.0140672897        -28.8713913     0.000373697562         165.899424
                   0.000449439375         166.091347       0.0788316717         164.130726     0.000418324327         166.035557       0.0201498881         28.6535635
                     0.0140672938        -28.8713701     0.000418324332         166.035562       0.0977316921         -159.03852     0.000436234706         166.097194
                    0.00037369757         165.899426       0.0201498543         28.6538358     0.000436234662         166.097193       0.0789024599         164.112508

         170000000      0.0999458546        -164.962295     0.000477768604         159.398652        0.012756825        -39.0209187     0.000397410929         159.207583
                    0.00047776854         159.398658       0.0819327501          154.94204     0.000444810175         159.341431       0.0198754465         29.0998131
                     0.0127568299        -39.0209008     0.000444810184         159.341437       0.0998930352        -165.072462     0.000463793923         159.407005
                   0.000397410943         159.207585       0.0198754236         29.1001504     0.000463793868         159.407003        0.082023214         154.926864

         180000000       0.101568736        -170.949893     0.000505589299         152.666769        0.011301512        -50.7316428      0.00042074791         152.471459
                   0.000505589303         152.666771       0.0848501549         145.938485     0.000470851767         152.605092       0.0196899748         30.3654463
                     0.0113015171        -50.7316282     0.000470851793         152.605098        0.101459506        -171.056437     0.000490876886         152.676425
                   0.000420747938         152.471461       0.0196899695         30.3658362     0.000490876822         152.676423       0.0849608155         145.927865

         190000000       0.102507195        -176.910422     0.000532748582         145.909444      0.00980001435         -64.934334     0.000443578834         145.704366
                   0.000532748599         145.909446       0.0874904822         137.160319     0.000496305746         145.840248       0.0196890807         32.3875518
                    0.00980001928        -64.9343219     0.000496305781         145.840253        0.102336868        -177.012526     0.000517334444         145.918964
                   0.000443578873         145.704368       0.0196890983         32.3879727     0.000517334377         145.918962       0.0876211808         137.155675

         200000000       0.102691837         177.188285     0.000559076348         139.147044      0.00841706911        -83.0239754     0.000465757928         138.926286
                   0.000559076375         139.147046       0.0896540929         128.577644     0.000521007832          139.06694       0.0199530407         34.9955137
                    0.00841707358        -83.0239639     0.000521007878         139.066946        0.102456531         177.091552     0.000543001892         139.154868
                   0.000465757978         138.926286       0.0199530842         34.9959364     0.000543001825         139.154865       0.0898043586         128.580276

         210000000        0.10224568         171.322243     0.000584516483         132.384179      0.00745863329         -106.20913     0.000487228146         132.141373
                   0.000584516519         132.384181       0.0914732176         120.178602     0.000544900425          132.28945       0.0205619812         37.8387374
                     0.0074586371        -106.209116     0.000544900482         132.289455         0.10194227         171.231875     0.000567821264         132.388634
                   0.000487228203         132.141372       0.0205620499          37.839132     0.000567821199         132.388631       0.0916421693         120.189684

         220000000       0.101094304         165.464981     0.000608959111         125.633504      0.00731215459        -133.462056     0.000507889688         125.362203
                   0.000608959154         125.633505       0.0928768563         111.974485     0.000567876661         125.520641       0.0215643916         40.5757185
                    0.00731215764        -133.462041     0.000567876728         125.520646        0.100720505         165.382034     0.000591682844         125.632722
                   0.000507889749           125.3622       0.0215644818         40.5760615     0.000591682783          125.63272       0.0930631093         111.995077

         230000000      0.0991524647         159.647789     0.000632299037         118.916711      0.00819059175        -159.934979     0.000527645358         118.610425
                   0.000632299084         118.916711       0.0936223885         103.938485     0.000589828957         118.782084       0.0229616502         42.9209967
                    0.00819059408        -159.934965     0.000589829031         118.782088       0.0987070023          159.57362     0.000614482677          118.90877
                   0.000527645419         118.610421       0.0229617558         42.9212757     0.000614482622         118.908768       0.0938242062         103.969593

         240000000      0.0966268953          153.87308     0.000654559614         112.233196      0.00992113187         178.476454     0.000546495864         111.885363
                   0.000654559661         112.233195       0.0939427169         96.0416436     0.000610767363         112.072864       0.0247248247         44.5928338
                    0.00992113371         178.476464     0.000610767443         112.072867       0.0961094755         153.809211     0.000636237797         112.216295
                   0.000546495919         111.885358       0.0247249384          44.593048     0.000636237749         112.216293       0.0941579837         96.0843217

         250000000      0.0933331776         148.058301     0.000675705764         105.602024        0.012223011          161.76263      0.00056440277         105.206511
                   0.000675705809         105.602022        0.093614751         88.3698284     0.000630657397         105.413046       0.0268248669         45.5028508
                     0.0122230126         161.762636     0.000630657479         105.413048       0.0927443222         148.006257     0.000656908373          105.57408
                   0.000564402816         105.206505       0.0268249816         45.5030072     0.000656908333         105.574079       0.0938410811         88.4248965

         260000000      0.0893776709         142.288854     0.000695761848         99.0325613       0.0148491873         148.418238     0.000581365967         98.5834582
                   0.000695761888         99.0325594       0.0926514212         80.8233395     0.000649502439          98.811488       0.0291833683         45.6510981
                     0.0148491886         148.418242     0.000649502519         98.8114898       0.0887192038         142.250917     0.000676514428         98.9917901
                   0.000581366002         98.5834518       0.0291834779         45.6512074     0.000676514396         98.9917893       0.0928861488         80.8918734

         270000000       0.084889107         136.594288     0.000714815835         92.5297228       0.0176400027         137.214929     0.000597436844         92.0217911
                   0.000714815867         92.5297208       0.0911270351         73.3885189     0.000667367607         92.2733399       0.0317252928         45.0821501
                     0.0176400038         137.214931     0.000667367683         92.2733409        0.084164125         136.573429     0.000695135843         92.4745806
                   0.000597436866         92.0217849       0.0317253921         45.0822234     0.000695135817         92.4745801       0.0913672844         73.4716811

         280000000        0.07958539         130.767084       0.0007329559         86.1121269       0.0205314184         127.459026     0.000612683035         85.5411198
                   0.000732955924         86.1121249       0.0887730715         66.2386282     0.000684345932         85.8191139       0.0344251122         43.8653686
                     0.0205314192         127.459027        0.000684346         85.8191142       0.0787971933          130.76577     0.000712847511          86.040746
                   0.000612683045         85.5411144       0.0344251973         43.8654155     0.000712847492         86.0407457       0.0890159504         66.3373367

