! Created Tue Feb 26 16:39:17 2019
# hz S ma R 50
! 4 Port Network Data from SP1.SP block
! freq  magS11  angS11  magS12  angS12  magS13  angS13  magS14  angS14  
!       magS21  angS21  magS22  angS22  magS23  angS23  magS24  angS24  
!       magS31  angS31  magS32  angS32  magS33  angS33  magS34  angS34  
!       magS41  angS41  magS42  angS42  magS43  angS43  magS44  angS44  
!     
                 0      0.0330059045        -20.2507295        0.967384712        -5.45229769      0.00155256263         70.8689679     0.000385712092        -174.363411
                      0.967384717         -5.4522977       0.0327123845        -17.0780539     0.000386349596        -174.377312      0.00155094333         68.6685206
                    0.00155253356         70.8763956      0.00038639011        -174.378794       0.0330142705        -20.2352807         0.96736113        -5.45644055
                   0.000385556065        -174.359173      0.00155099533         68.6634836        0.967361126        -5.45644053       0.0327527466        -17.0527427

          10000000      0.0336998859        -18.7020059        0.966505087        -6.54238924      0.00274385347         73.0200152     0.000575528027        -133.523117
                      0.966505087        -6.54238924       0.0331237836        -16.6145052     0.000575590131        -133.526501      0.00273210795         74.9768666
                    0.00274385347         73.0200151     0.000575590111          -133.5265        0.033722575        -18.6743663        0.966478073        -6.54550714
                    0.00057552801        -133.523116      0.00273210796         74.9768663        0.966478073        -6.54550714       0.0331485014        -16.5879651

          20000000      0.0368539629        -35.8584333        0.964982551        -13.0521856      0.00535692216          68.824505     0.000923964088        -125.723774
                      0.964982551        -13.0521856       0.0346349697        -32.4296714     0.000924126367        -125.734461      0.00534743598         73.1686867
                    0.00535692703         68.8243909     0.000924128425        -125.734494       0.0368686813        -35.8258577        0.964956482         -13.057897
                   0.000923965417        -125.723816      0.00534742334            73.1688        0.964956482         -13.057897       0.0346553297        -32.3971427

          30000000      0.0410787403        -50.7448598        0.963387049        -19.5547091      0.00787456162         62.7237327      0.00128538877        -122.963048
                       0.96338705        -19.5547091       0.0364041905        -47.4459599       0.0012855901        -122.983159      0.00787299462         69.5733256
                    0.00787455691         62.7237472      0.00128559691        -122.983213       0.0410825387        -50.7102687        0.963362766        -19.5632346
                    0.00128539261        -122.963044      0.00787299311         69.5733242        0.963362765        -19.5632346       0.0364162439        -47.4081973

          40000000      0.0462424059        -63.5993069        0.961468623        -26.0446383       0.0102581268         56.2294358      0.00167762392        -122.119941
                      0.961468623        -26.0446383       0.0385652203        -61.7033588      0.00167784766        -122.143219       0.0102420535          65.718079
                     0.0102581309         56.2294608      0.00167784619        -122.143907       0.0462352831        -63.5679955        0.961445717        -26.0560346
                     0.0016776259        -122.119921       0.0102420394         65.7180876        0.961445717        -26.0560346       0.0385704477        -61.6635221

          50000000      0.0520773459        -74.7678146        0.959232522        -32.5203887       0.0124218845         49.2640189      0.00210590957        -123.057816
                      0.959232522        -32.5203887       0.0411289986        -75.1960503      0.00210614608        -123.088329         0.01240013         61.4607072
                     0.0124218868          49.264021      0.00210614796        -123.088431       0.0520603229        -74.7430227        0.959210707        -32.5346765
                    0.00210591034        -123.057793       0.0124001235         61.4607203        0.959210707        -32.5346765       0.0411275784        -75.1589751

          60000000       0.058233171        -84.7708195        0.956749859        -38.9814882       0.0143646378         42.1591496      0.00258375497         -125.05363
                      0.956749859        -38.9814882       0.0439269856        -88.2033138      0.00258394471        -125.090568       0.0143216108         57.2535597
                     0.0143646376         42.1591464      0.00258394626        -125.090503       0.0582076094         -84.754411        0.956728987        -38.9986779
                    0.00258375674        -125.053604       0.0143216072          57.253554        0.956728987        -38.9986778       0.0439197113        -88.1719764

          70000000      0.0646327881        -93.8323565         0.95401556        -45.4242997       0.0160050337         34.6269107       0.0031119901        -128.429973
                       0.95401556        -45.4242997       0.0470305049        -100.588752      0.00311208786        -128.472467       0.0160193085         52.8291564
                     0.0160050292         34.6268963      0.00311208964        -128.472433       0.0646001837         -93.825326        0.953995645        -45.4444062
                    0.00311199104        -128.429913       0.0160193062         52.8291563        0.953995645        -45.4444062       0.0470187901        -100.565332

          80000000      0.0710669764        -102.174411        0.951069939        -51.8474949       0.0173478481         26.9585387      0.00369422214        -132.632035
                      0.951069939        -51.8474949       0.0503369828        -112.458355      0.00369418621        -132.679552       0.0174541354         48.5893194
                      0.017347844         26.9585229      0.00369418573        -132.679521       0.0710291475        -102.177286        0.951050897        -51.8705289
                    0.00369422219        -132.632018       0.0174541351         48.5893056        0.951050897        -51.8705289       0.0503233732        -112.443641

          90000000      0.0773921022        -110.153161        0.948000007        -58.2561054       0.0183840378          19.147116      0.00433146909        -137.540038
                      0.948000007        -58.2561054       0.0537652685        -124.055549      0.00433125605        -137.592023       0.0186251614         44.5727473
                     0.0183840376          19.147114      0.00433125638        -137.592023       0.0773507112        -110.166236          0.9479817        -58.2820777
                    0.00433146966        -137.540032       0.0186251612         44.5727475          0.9479817        -58.2820777       0.0537525213        -124.049638

         100000000      0.0835157351        -117.709216        0.944802867        -64.6446232        0.019090906         11.1454108      0.00501643784         -143.08053
                      0.944802867        -64.6446232       0.0573240447        -135.226389      0.00501602596        -143.136682       0.0195189726         40.8519732
                      0.019090906           11.14541      0.00501602635         -143.13668       0.0834727183        -117.732666        0.944785125         -64.673545
                    0.00501643824        -143.080528       0.0195189721         40.8519739        0.944785125         -64.673545       0.0573152527          -135.2286

         110000000      0.0893573819        -124.995998        0.941518746        -71.0083824       0.0194624535         2.89238988      0.00573983657        -149.147948
                      0.941518746        -71.0083824       0.0609498734        -145.966071      0.00573916365        -149.208303       0.0201402976         37.4812007
                     0.0194624569         2.89239933       0.0057391732        -149.208388       0.0893151258        -125.029298         0.94150142        -71.0402706
                    0.00573983655         -149.14795       0.0201402893         37.4812171         0.94150142        -71.0402706       0.0609474743         -145.97493

         120000000      0.0948047516        -132.107602        0.938209162        -77.3582624       0.0195103536        -5.65352829       0.0064978928        -155.665273
                      0.938209162        -77.3582624       0.0646145428        -156.503992      0.00649693617        -155.729574       0.0205122263         34.5217084
                     0.0195103648        -5.65350718      0.00649694429        -155.729831       0.0947647508        -132.151341         0.93819198        -77.3931278
                    0.00649789215        -155.665279       0.0205122082         34.5217536         0.93819198        -77.3931278       0.0646218399         -156.51809

         130000000      0.0997221595        -139.083801        0.934894236        -83.6922009       0.0192437609        -14.6039564      0.00728104378        -162.548879
                      0.934894236        -83.6922009       0.0683186684         -166.77954      0.00727978547        -162.616966       0.0206577598         32.0734753
                     0.0192437832        -14.6039289      0.00727977964        -162.617335       0.0996858535        -139.138422        0.934876881        -83.7300499
                     0.0072810425        -162.548889        0.020657732         32.0735621        0.934876881        -83.7300499        0.068338621        -166.797244

         140000000        0.10410724        -145.896905         0.93160211        -90.0029186       0.0186756553        -24.0947274      0.00807636378        -169.728082
                       0.93160211        -90.0029187       0.0718944417        -176.707258      0.00807479275        -169.799865       0.0206040475          30.231008
                       0.01867569         -24.094701      0.00807476844        -169.800267        0.104075928        -145.962799        0.931584256        -90.0437511
                    0.00807636196        -169.728095       0.0206040125         30.2311489        0.931584257        -90.0437511       0.0719294514        -176.726878

         150000000       0.107932395        -152.639386        0.928359072          -96.29932       0.0178565982        -34.2922066      0.00887700853        -177.137635
                      0.928359072          -96.29932        0.075413044         173.602394      0.00887511418        -177.213082       0.0204139637         29.0562299
                     0.0178566447        -34.2921883      0.00887507189        -177.213469        0.107906958        -152.716861        0.928340402        -96.3431327
                    0.00887700632        -177.137652       0.0204139262         29.0564344        0.928340402        -96.3431327       0.0754651636         173.582591

         160000000        0.11107075        -159.314039        0.925190239        -102.582955       0.0168406873        -45.4741319      0.00967232522         175.265875
                      0.925190239        -102.582955       0.0788316717         164.130726      0.00967010144         175.186776       0.0201498881         28.6535635
                      0.016840744        -45.4741256      0.00967004387         175.186427        0.111051315        -159.403088        0.925170555        -102.629737
                    0.00967232271         175.265855       0.0201498543         28.6538358        0.925170555        -102.629737       0.0789024599         164.112508

         170000000       0.113460409        -165.921366        0.922144805        -108.846062       0.0156991161        -57.9925655       0.0104478161          167.53515
                      0.922144804        -108.846062       0.0819327501          154.94204       0.0104452562         167.452469       0.0198754465         29.0998131
                     0.0156991809         -57.992571       0.0104451868         167.452167        0.113446511        -166.020522        0.922124156        -108.895813
                     0.0104478133         167.535126       0.0198754236         29.1001504        0.922124156        -108.895813        0.082023214         154.926864

         180000000       0.115161949        -172.490006        0.919210625        -115.099187       0.0145601126        -72.2246002       0.0111989381         159.706946
                      0.919210625        -115.099187       0.0848501549         145.938485       0.0111961014         159.620878       0.0196899748         30.3654463
                     0.0145601833        -72.2246114       0.0111960236         159.620622        0.115162331        -172.595822        0.919188507        -115.151959
                     0.0111989351         159.706919       0.0196899695         30.3658362        0.919188506        -115.151959       0.0849608155         145.927865

         190000000       0.116061591        -179.047171         0.91641315        -121.342397       0.0135899055        -88.5718186       0.0119159664         151.820266
                       0.91641315        -121.342397       0.0874904822         137.160319       0.0119129314         151.730283       0.0196890807         32.3875518
                     0.0135899797        -88.5718229       0.0119128485          151.73007        0.116086538        -179.166459        0.916387848        -121.398125
                      0.011915963         151.820236       0.0196890983         32.3879727        0.916387848        -121.398125       0.0876211808         137.155675

         200000000        0.11611311         174.435188        0.913796464        -127.572272       0.0129952532        -107.143446       0.0125852496         143.905823
                      0.913796464        -127.572272       0.0896540929         128.577644       0.0125819765          143.81169       0.0199530407         34.9955137
                     0.0129953285        -107.143427       0.0125818913         143.811515        0.116154636         174.299785        0.913768465        -127.630872
                     0.0125852457          143.90579       0.0199530842         34.9959364        0.913768465        -127.630872       0.0898043586         128.580276

         210000000       0.115409264         167.919053        0.911329216        -133.795198       0.0129965319        -127.203131       0.0132057111         135.993043
                      0.911329216        -133.795198       0.0914732176         120.178602       0.0132021921          135.89476       0.0205619812         37.8387374
                     0.0129966054        -127.203078       0.0132021072         135.894618        0.115465531         167.768134         0.91129886        -133.856649
                     0.0132057067         135.993008       0.0205620499          37.839132        0.911298859        -133.856649       0.0916421693         120.189684

         220000000       0.113891648         161.379977        0.909016117        -140.013549        0.013739962        -147.322953       0.0137703266         128.110328
                      0.909016116        -140.013549       0.0928768563         111.974485       0.0137665748         128.007827       0.0215643916         40.5757185
                      0.013740031        -147.322873       0.0137664923         128.007712         0.11396296         161.213534        0.908983594        -140.077829
                     0.0137703216         128.110292       0.0215644818         40.5760615        0.908983593        -140.077829       0.0930631093         111.995077

         230000000       0.111456773         154.827747        0.906907505        -146.223407       0.0152293915        -166.050621       0.0142669297         120.293636
                      0.906907505        -146.223407       0.0936223885         103.938485        0.014262962         120.186822       0.0229616502         42.9209967
                     0.0152294545        -166.050533       0.0142628836         120.186731        0.111543715         154.645314        0.906873046        -146.290491
                     0.0142669242         120.293601       0.0229617558         42.9212757        0.906873046        -146.290491       0.0938242062         103.969593

         240000000       0.108322142         148.265903        0.904933303        -152.432524       0.0173283841         177.405219        0.014701316         112.556789
                      0.904933302        -152.432524       0.0939427169         96.0416436       0.0146971452         112.445556       0.0247248247         44.5928338
                     0.0173284405         177.405301       0.0146970724         112.445485        0.108425167         148.066682        0.904897158         -152.50239
                       0.01470131         112.556755       0.0247249384          44.593048        0.904897158         -152.50239       0.0941579837         96.0843217

         250000000       0.104304812         141.594747        0.903127447        -158.640412       0.0199009393         163.023261       0.0150671572         104.943756
                      0.903127446        -158.640412        0.093614751         88.3698284       0.0150627891         104.827992       0.0268248669         45.5028508
                     0.0199009892         163.023327       0.0150627231         104.827939         0.10442432         141.377746        0.903089962        -158.713042
                     0.0150671509         104.943726       0.0268249816         45.5030072        0.903089961        -158.713042       0.0938410811         88.4248965

         260000000       0.099518967         134.878097        0.901472911        -164.847747       0.0227862884         150.398912       0.0153629376         97.4747232
                      0.901472911        -164.847747       0.0926514212         80.8233395       0.0153583762         97.3543119       0.0291833683         45.6510981
                     0.0227863318          150.39896       0.0153583179         97.3542738       0.0996551087         134.641976        0.901434489        -164.923125
                     0.0153629312          97.474696       0.0291834779         45.6512074        0.901434489        -164.923125       0.0928861488         80.8918734

         270000000      0.0940744763         128.126151        0.899933943        -171.056184       0.0258507684         139.108541       0.0155946762         90.1713182
                      0.899933943        -171.056184       0.0911270351         73.3885189       0.0155899171         90.0461527       0.0317252928         45.0821501
                     0.0258508052         139.108574       0.0155898673         90.0461271        0.094227184         127.869177        0.899895005        -171.134299
                       0.01559467         90.1712952       0.0317253921         45.0822234        0.899895004        -171.134299       0.0913672844         73.4716811

         280000000      0.0877659149         121.090686        0.898537752         -177.26831       0.0290330974          128.85734       0.0157625739         83.0956944
                      0.898537752         -177.26831       0.0887730715         66.2386282       0.0157575983          82.965661       0.0344251122         43.8653686
                     0.0290331274         128.857361       0.0157575575         82.9656458       0.0879353317         120.810972        0.898498822         -177.34916
                     0.0157625682         83.0956761       0.0344251973         43.8654155        0.898498822         -177.34916       0.0890159504         66.3373367

