! Created Tue Feb 26 21:39:54 2019
# hz S ma R 50
! 4 Port Network Data from SP1.SP block
! freq  magS11  angS11  magS12  angS12  magS13  angS13  magS14  angS14  
!       magS21  angS21  magS22  angS22  magS23  angS23  magS24  angS24  
!       magS31  angS31  magS32  angS32  magS33  angS33  magS34  angS34  
!       magS41  angS41  magS42  angS42  magS43  angS43  magS44  angS44  
!     
                 0      0.0246506374        -23.4663407    1.08077301e-005        -112.756808      0.00154741174         72.9495103    8.62567491e-006        -118.599567
                  1.08077383e-005        -112.757666       0.0327123845        -17.0780539    8.16393493e-006        -110.144766      0.00155094333         68.6685206
                    0.00154743236         72.9424332     8.1644865e-006        -110.158992        0.024670092        -23.4347144    1.08282875e-005        -112.559593
                  8.63371727e-006        -118.719186      0.00155099533         68.6634836    1.08283883e-005        -112.561124       0.0327527466        -17.0527427

          10000000      0.0247083973        -19.5111683    2.81823702e-005        -107.649337      0.00372424275         75.4934854    2.76126593e-005        -107.230626
                  2.81823702e-005        -107.649337       0.0331237836        -16.6145052     2.4266652e-005        -107.529575      0.00273210795         74.9768666
                    0.00372424275         75.4934854     2.4266652e-005        -107.529575       0.0247302688        -19.4916447    2.85236815e-005        -107.437426
                  2.76126593e-005        -107.230626      0.00273210796         74.9768663    2.85236815e-005        -107.437426       0.0331485014        -16.5879651

          20000000      0.0274210283        -37.2028393    5.37926828e-005        -110.214744      0.00722972004          69.096106    5.27360643e-005        -110.035536
                  5.37926827e-005        -110.214744       0.0346349697        -32.4296714    4.63611675e-005        -110.245316      0.00534743598         73.1686867
                    0.00722974158         69.0962063    4.63611668e-005        -110.245317       0.0274387427        -37.1854981    5.44677853e-005        -110.097265
                  5.27360636e-005        -110.035536      0.00534742334            73.1688    5.44677855e-005        -110.097265       0.0346553297        -32.3971427

          30000000      0.0314162526        -52.0735639    7.90098646e-005        -114.972579       0.0105866265         61.3432052    7.74624384e-005        -114.901191
                  7.90098653e-005        -114.972579       0.0364041905        -47.4459599     6.8080182e-005        -115.084194      0.00787299462         69.5733256
                     0.0105866383          61.343231     6.8080182e-005        -115.084194       0.0314262713        -52.0630436    8.00161585e-005        -114.886944
                  7.74624386e-005        -114.901191      0.00787299311         69.5733242    8.00161579e-005        -114.886944       0.0364162439        -47.4081973

          40000000      0.0363119522        -64.4176932     0.000104097721        -120.361052       0.0137471824         53.1740433     0.000102039731        -120.356351
                   0.000104097722        -120.361052       0.0385652203        -61.7033588    8.96556224e-005         -120.52915       0.0102420535          65.718079
                     0.0137471841         53.1740872    8.96556223e-005         -120.52915       0.0363148333        -64.4211163      0.00010543785        -120.291825
                   0.000102039732        -120.356351       0.0102420394         65.7180876     0.000105437849        -120.291824       0.0385704477        -61.6635221

          50000000       0.041843609        -74.8322158     0.000129185528        -126.037981        0.016663325         44.7745503     0.000126596835        -126.077384
                   0.000129185528        -126.037981       0.0411289986        -75.1960503     0.000111202488        -126.246029         0.01240013         61.4607072
                     0.0166633258         44.7745522     0.000111202489        -126.246029       0.0418386614        -74.8509947     0.000130866066         -125.97904
                   0.000126596835        -126.077384       0.0124001235         61.4607203     0.000130866065         -125.97904       0.0411275784        -75.1589751

          60000000       0.047733093        -84.0290561     0.000154399153        -131.885579         0.01929502         36.1967784     0.000151262617        -131.954641
                   0.000154399154         -131.88558       0.0439269856        -88.2033138     0.000132834898        -132.121192       0.0143216108         57.2535597
                       0.01929502         36.1967819     0.000132834899        -132.121192       0.0477197903        -84.0630904     0.000156429856        -131.834525
                   0.000151262617        -131.954641       0.0143216072          57.253554     0.000156429856        -131.834525       0.0439197113        -88.1719764

          70000000      0.0538941104        -92.2584631     0.000179799964        -137.848585       0.0216037925         27.4426651     0.000176103193         -137.93723
                   0.000179799964        -137.848585       0.0470305049        -100.588752     0.000154611845        -138.101807       0.0160193085         52.8291564
                     0.0216037931         27.4426659     0.000154611845        -138.101807       0.0538720487        -92.3069211     0.000182192606        -137.804828
                   0.000176103193         -137.93723       0.0160193062         52.8291563     0.000182192607        -137.804828       0.0470187901        -100.565332

          80000000      0.0601986372        -99.8150951     0.000205460209        -143.905141       0.0235609268         18.4936272     0.000201196501        -144.005999
                   0.000205460209        -143.905141       0.0503369828        -112.458355     0.000176604504         -144.16794       0.0174541354         48.5893194
                     0.0235609266         18.4936283     0.000176604505         -144.16794        0.060167471         -99.877325     0.000208227131        -143.868967
                   0.000201196501        -144.005999       0.0174541351         48.5893056     0.000208227131        -143.868967       0.0503233732        -112.443641

          90000000      0.0664875654        -107.068365      0.00023148148        -150.061003       0.0251598819         9.32405626      0.00022665061        -150.168909
                    0.00023148148        -150.061003       0.0537652685        -124.055549     0.000198910317         -150.32744       0.0186251614         44.5727473
                     0.0251598821         9.32405515     0.000198910317         -150.32744       0.0664469944        -107.143766     0.000234636023        -150.033143
                    0.00022665061        -150.168909       0.0186251612         44.5727475     0.000234636023        -150.033143       0.0537525213        -124.049638

         100000000      0.0727227545        -113.961666     0.000257847566        -156.303326       0.0263845664       -0.119619318      0.00025245791        -156.414783
                   0.000257847566        -156.303326       0.0573240447        -135.226389     0.000221526167         -156.56922       0.0195189726         40.8519732
                     0.0263845664       -0.119619024     0.000221526168         -156.56922       0.0726725722        -114.049621     0.000261401594        -156.284749
                    0.00025245791        -156.414783       0.0195189721         40.8519739     0.000261401594        -156.284749       0.0573152527          -135.2286

         110000000      0.0788140695        -120.619926     0.000284552796        -162.630563       0.0272430919        -9.90182664     0.000278621039        -162.743539
                   0.000284552797        -162.630563       0.0609498734        -145.966071     0.000244457662        -162.893643       0.0201402976         37.4812007
                     0.0272430921        -9.90182144     0.000244457662        -162.893644       0.0787529841        -120.720037     0.000288516413        -162.622342
                    0.00027862104        -162.743539       0.0201402893         37.4812171     0.000288516413        -162.622342       0.0609474743         -145.97493

         120000000      0.0846679582        -127.172734     0.000311601858        -169.055687       0.0277611779         -20.077441     0.000305153748         -169.17037
                    0.00031160186        -169.055687       0.0646145428        -156.503992     0.000267718745        -169.316151       0.0205122263         34.5217084
                     0.0277611796        -20.0774317      0.00026771874        -169.316151       0.0845965885        -127.284266     0.000315983969        -169.058868
                   0.000305153748         -169.17037       0.0205122082         34.5217536     0.000315983969        -169.058869       0.0646218399         -156.51809

         130000000       0.090143802        -133.624277     0.000338919416        -175.575667       0.0279730667        -30.7439053     0.000331990086        -175.693372
                    0.00033891942        -175.575667       0.0683186684         -166.77954     0.000291253094        -175.835391       0.0206577598         32.0734753
                     0.0279730707        -30.7438936     0.000291253086        -175.835391       0.0900627734        -133.746769      0.00034372556        -175.591188
                   0.000331990085        -175.693372        0.020657732         32.0735621      0.00034372556        -175.591188        0.068338621        -166.797244

         140000000      0.0952507501        -139.964954     0.000366372335         177.825966       0.0279247697        -41.9964903     0.000358998226         177.702561
                   0.000366372342         177.825966       0.0718944417        -176.707258     0.000314949289         177.563536       0.0206040475          30.231008
                     0.0279247761        -41.9964775     0.000314949277         177.563536       0.0951605086        -140.097923     0.000371603236         177.797273
                   0.000358998222         177.702559       0.0206040125         30.2311489     0.000371603235         177.797272       0.0719294514        -176.726878

         150000000       0.099953385        -146.267999     0.000393881351          171.14233       0.0277016044        -53.9239592     0.000386104819         171.009431
                    0.00039388136          171.14233        0.075413044         173.602394     0.000338741856         170.872251       0.0204139637         29.0562299
                     0.0277016129        -53.9239466     0.000338741842         170.872253       0.0998545524        -146.411149     0.000399535059          171.09978
                    0.00038610481          171.00943       0.0204139262         29.0564344     0.000399535056         171.099779       0.0754651636         173.582591

         160000000       0.104114534        -152.545215     0.000421293557         164.379578        0.027401963        -66.6286641     0.000413160742         164.232923
                   0.000421293568         164.379577       0.0788316717         164.130726     0.000362499372         164.096089       0.0201498881         28.6535635
                     0.0274019733        -66.6286525     0.000362499359         164.096092        0.104007751        -152.698264     0.000427363393         164.322705
                   0.000413160725         164.232922       0.0201498543         28.6538358     0.000427363387         164.322704       0.0789024599         164.112508

         170000000       0.107674761        -158.773731      0.00044842036         157.559875       0.0271410612        -80.1702284     0.000439973574         157.394592
                   0.000448420372         157.559874       0.0819327501          154.94204     0.000386054781         157.256627       0.0198754465         29.0998131
                     0.0271410728        -80.1702181     0.000386054769          157.25663         0.10756073         -158.93638     0.000454893744         157.488382
                   0.000439973551         157.394591       0.0198754236         29.1001504     0.000454893735          157.48838        0.082023214         154.926864

         180000000       0.110680874        -164.998928     0.000475137376         150.681716       0.0270599227        -94.4989366     0.000466417996         150.492285
                    0.00047513738         150.681713       0.0848501549         145.938485     0.000409295065         150.351632       0.0196899748         30.3654463
                     0.0270599351        -94.4989277     0.000409295063         150.351637        0.110560435        -165.170869     0.000481998721         150.595406
                   0.000466417967         150.492285       0.0196899695         30.3658362     0.000481998708         150.595405       0.0849608155         145.927865

         190000000       0.113015069        -171.238836      0.00050126714         143.758747       0.0273048256         -109.48179     0.000492313348         143.539906
                   0.000501267159         143.758746       0.0874904822         137.160319     0.000432060019         143.394791       0.0196890807         32.3875518
                     0.0273048383        -109.481783     0.000432060008         143.394794        0.112889235        -171.419785     0.000508495793         143.657714
                   0.000492313314         143.539906       0.0196890983         32.3879727     0.000508495777         143.657713       0.0876211808         137.155675

         200000000       0.114593211        -177.463256     0.000526613069           136.8128       0.0280032941        -124.857721     0.000517453813         136.559126
                   0.000526613088         136.812799       0.0896540929         128.577644     0.000454169031         136.407993       0.0199530407         34.9955137
                     0.0280033068        -124.857714     0.000454169024         136.407996        0.114463135        -177.652917     0.000534183352         136.697335
                   0.000517453776         136.559127       0.0199530842         34.9959364     0.000534183334         136.697335       0.0898043586         128.580276

         210000000       0.115515679         176.293935     0.000551071078          129.84889       0.0292377152        -140.233046     0.000541727395         129.554697
                   0.000551071094         129.848888       0.0914732176         120.178602     0.000475519589         129.396054       0.0205619812         37.8387374
                     0.0292377276         -140.23304     0.000475519588         129.396058        0.115382705          176.09587      0.00055895544         129.719333
                   0.000541727356         129.554699       0.0205620499          37.839132     0.000558955422         129.719333       0.0916421693         120.189684

         220000000       0.115686036         170.008329     0.000574490601         122.881127       0.0310486489        -155.243972     0.000564975557         122.541382
                   0.000574490614         122.881125       0.0928768563         111.974485     0.000495969582          122.37361       0.0215643916         40.5757185
                     0.0310486607        -155.243968     0.000495969586         122.373613        0.115551685         169.802112     0.000582658258         122.738062
                   0.000564975518         122.541384       0.0215644818         40.5760615     0.000582658241         122.738062       0.0930631093         111.995077

         230000000        0.11500682         163.706049     0.000596729481         115.934189       0.0334231101        -169.620435     0.000587040543         115.544072
                   0.000596729492         115.934187       0.0936223885         103.938485     0.000515381039         115.365848       0.0229616502         42.9209967
                     0.0334231213        -169.620432     0.000515381045         115.365851        0.114872687         163.491923     0.000605145883         115.778417
                   0.000587040506         115.544074       0.0229617558         42.9212757     0.000605145869         115.778418       0.0938242062         103.969593

         240000000       0.113667381         157.370863     0.000617745392         109.009451       0.0362745208         176.804497     0.000607863815         108.563912
                   0.000617745401         109.009449       0.0939427169         96.0416436     0.000533697558         108.374144       0.0247248247         44.5928338
                      0.036274531         176.804499     0.000533697567         108.374146        0.113535131         157.149135     0.000626376144          108.84176
                    0.00060786378         108.563914       0.0247249384          44.593048     0.000626376135         108.841761       0.0941579837         96.0843217

         250000000       0.111462167         150.929576     0.000637465973         102.128284       0.0395394958         164.066514     0.000627367821          101.62418
                    0.00063746598         102.128283        0.093614751         88.3698284     0.000550846635          101.42129       0.0268248669         45.5028508
                     0.0395395049         164.066516     0.000550846644         101.421292        0.111333617         150.700432     0.000646276514         101.949859
                    0.00062736779         101.624182       0.0268249816         45.5030072      0.00064627651          101.94986       0.0938410811         88.4248965

         260000000       0.108493153         144.437896     0.000655862555          95.304755       0.0431048648         152.101385     0.000645496733         94.7385313
                    0.00065586256         95.3047536       0.0926514212         80.8233395      0.00056677963         94.5217027       0.0291833683         45.6510981
                     0.0431048728         152.101385     0.000566779639         94.5217044        0.108370044         144.201649     0.000664817754         95.1168073
                   0.000645496706         94.7385337       0.0291834779         45.6512074     0.000664817757          95.116808       0.0928861488         80.8918734

         270000000       0.104876094         137.897797     0.000672967378         88.5482156       0.0468574759         140.811702     0.000662259391         87.9169138
                    0.00067296738         88.5482144       0.0911270351         73.3885189      0.00058150175         87.6856597       0.0317252928         45.0821501
                     0.0468574827         140.811702     0.000581501759          87.685661        0.104760138          137.65486     0.000682033708         88.3520159
                   0.000662259369         87.9169161       0.0317253921         45.0822234     0.000682033715         88.3520162       0.0913672844         73.4716811

         280000000       0.100317181         131.120478     0.000688845287         81.8794422       0.0507418904         130.122041     0.000677733216         81.1834791
                   0.000688845287         81.8794412       0.0887730715         66.2386282     0.000595070658         80.9363142       0.0344251122         43.8653686
                     0.0507418959         130.122041     0.000595070666         80.9363152         0.10021027          130.87107     0.000697995404         81.6768052
                   0.000677733199         81.1834813       0.0344251973         43.8654155     0.000697995413         81.6768051       0.0890159504         66.3373367

