! Created Tue Feb 26 16:45:21 2019
# hz S ma R 50
! 4 Port Network Data from SP1.SP block
! freq  magS11  angS11  magS12  angS12  magS13  angS13  magS14  angS14  
!       magS21  angS21  magS22  angS22  magS23  angS23  magS24  angS24  
!       magS31  angS31  magS32  angS32  magS33  angS33  magS34  angS34  
!       magS41  angS41  magS42  angS42  magS43  angS43  magS44  angS44  
!     
                 0      0.0244268177        -23.9518144    1.00445438e-006        -73.0505155      0.00141877636         71.2679002    1.93686128e-005         114.469148
                  1.00518375e-006        -72.9464811       0.0327123845        -17.0780539    6.78931878e-006        -127.068061      0.00155094333         68.6685206
                    0.00141888542          71.236473    6.78969376e-006        -127.073544       0.0244335984        -23.9834076    7.19466478e-006         89.1965274
                  1.93685423e-005         114.468715      0.00155099533         68.6634836     7.1946656e-006         89.1969659       0.0327527466        -17.0527427

          10000000      0.0245979982        -21.8264051    6.50543312e-005        -102.775116      0.00261802754         75.4146396    6.56021574e-005        -105.003296
                  6.50543313e-005        -102.775116       0.0331237836        -16.6145052    5.73846793e-005        -103.246108      0.00273210795         74.9768666
                    0.00261802754         75.4146396    5.73846793e-005        -103.246108       0.0246105439        -21.8258701    5.73104491e-005        -104.698461
                  6.56021573e-005        -105.003296      0.00273210796         74.9768663     5.7310449e-005        -104.698461       0.0331485014        -16.5879651

          20000000      0.0276945763        -40.9808981     0.000125916325        -107.154265      0.00506860583         70.1751202     0.000126987922         -108.28601
                   0.000125916326        -107.154264       0.0346349697        -32.4296714     0.000111313681        -107.306759      0.00534743598         73.1686867
                    0.00506860913         70.1750804     0.000111313681        -107.306759       0.0277146993        -40.9650854     0.000110158671        -108.070577
                   0.000126987922         -108.28601      0.00534742334            73.1688      0.00011015867        -108.070578       0.0346553297        -32.3971427

          30000000      0.0321706571         -56.557523     0.000186061132        -112.555894      0.00741409469         63.4246081     0.000187433839        -113.113074
                   0.000186061133        -112.555894       0.0364041905        -47.4459599     0.000164651142        -112.620175      0.00787299462         69.5733256
                    0.00741409241         63.4246254     0.000164651141        -112.620174       0.0322010269         -56.530721     0.000162557496        -112.968008
                   0.000187433838        -113.113074      0.00787299311         69.5733242     0.000162557495        -112.968008       0.0364162439        -47.4081973

          40000000      0.0375119542        -69.1725788     0.000245986729        -118.263787      0.00962374758         56.2258177     0.000247873538        -118.400766
                   0.000245986728        -118.263787       0.0385652203        -61.7033588     0.000217856043        -118.292591       0.0102420535          65.718079
                    0.00962375109         56.2258002     0.000217856042        -118.292591       0.0375534259        -69.1334085     0.000215048144         -118.33096
                   0.000247873536        -118.400766       0.0102420394         65.7180876     0.000215048144         -118.33096       0.0385704477        -61.6635221

          50000000      0.0433823474        -79.6420261      0.00030599317        -124.119491       0.0116655204         48.8039979     0.000308823551        -123.920295
                   0.000305993169        -124.119492       0.0411289986        -75.1960503     0.000271197303        -124.137793         0.01240013         61.4607072
                     0.0116655176         48.8039862     0.000271197302        -124.137793       0.0434356641        -79.5905748     0.000267992741         -123.92735
                   0.000308823551        -123.920294       0.0124001235         61.4607203     0.000267992742         -123.92735       0.0411275784        -75.1589751

          60000000      0.0494839306        -88.7931224     0.000366376904        -130.076513       0.0135115008         41.2344592     0.000370754313        -129.608682
                   0.000366376903        -130.076514       0.0439269856        -88.2033138     0.000324930866         -130.10011       0.0143216108         57.2535597
                     0.0135114895         41.2344141     0.000324930866        -130.100109       0.0495500392        -88.7296082     0.000321744834        -129.690189
                   0.000370754314        -129.608681       0.0143216072          57.253554     0.000321744834        -129.690189       0.0439197113        -88.1719764

          70000000      0.0557055458        -96.9212999     0.000427252808         -136.11222       0.0151325145         33.5339026     0.000433852401        -135.437664
                   0.000427252808         -136.11222       0.0470305049        -100.588752     0.000379149159        -136.152742       0.0160193085         52.8291564
                     0.0151325138          33.533896     0.000379149161        -136.152742        0.055785338        -96.8468285     0.000376439418        -135.588672
                   0.000433852402        -135.437664       0.0160193062         52.8291563     0.000376439418        -135.588672       0.0470187901        -100.565332

          80000000      0.0619130164        -104.341018     0.000488744369         -142.21973       0.0165049206         25.6993864     0.000498280153         -141.39827
                   0.000488744368         -142.21973       0.0503369828        -112.458355     0.000433947225        -142.286415       0.0174541354         48.5893194
                     0.0165049198         25.6993832     0.000433947227        -142.286415       0.0620071953         -104.25663     0.000432199098        -141.612275
                   0.000498280155         -141.39827       0.0174541351         48.5893056       0.0004321991        -141.612275       0.0503233732        -112.443641

          90000000      0.0679633826        -111.428836     0.000551043977        -148.411661        0.017622993          17.727421     0.000564281043         -147.50491
                   0.000551043976        -148.411661       0.0537652685        -124.055549     0.000489476265        -148.511645       0.0186251614         44.5727473
                      0.017622993         17.7274193     0.000489476266        -148.511644       0.0680719023        -111.335364     0.000489213149        -147.773467
                   0.000564281043         -147.50491       0.0186251612         44.5727475      0.00048921315        -147.773467       0.0537525213        -124.049638

         100000000      0.0738027208        -118.130475     0.000614053398        -154.676827       0.0184654954          9.5766621     0.000631658395        -153.740928
                   0.000614053396        -154.676827       0.0573240447        -135.226389     0.000545628665        -154.815875       0.0195189726         40.8519732
                     0.0184654958          9.5766627     0.000545628664        -154.815875       0.0739256469          -118.0291     0.000547317501        -154.056036
                   0.000631658394        -153.740928       0.0195189721         40.8519739     0.000547317502        -154.056036       0.0573152527          -135.2286

         110000000      0.0793481304        -124.571424      0.00067770973        -161.012691       0.0190289707         1.19402233     0.000700265389        -160.100305
                   0.000677709727        -161.012691       0.0609498734        -145.966071     0.000602326525        -161.195047       0.0201402976         37.4812007
                     0.0190289706         1.19402634     0.000602326526        -161.195047       0.0794852898        -124.463662     0.000606390775        -160.453509
                   0.000700265434        -160.100303       0.0201402893         37.4812171     0.000606390775        -160.453509       0.0609474743         -145.97493

         120000000      0.0845222998        -130.879803     0.000742004103        -167.433417       0.0193218297        -7.44195816     0.000770019498        -166.595209
                   0.000742004096        -167.433417       0.0646145428        -156.503992     0.000659534859        -167.661222       0.0205122263         34.5217084
                     0.0193218296        -7.44195699     0.000659534865        -167.661221       0.0846725147         -130.76637     0.000666353398        -166.977717
                   0.000770019554        -166.595208       0.0205122082         34.5217536     0.000666353398        -166.977717       0.0646218399         -156.51809

         130000000      0.0891897469        -137.063867     0.000806760727        -173.933458       0.0193505856        -16.4204372      0.00084059432        -173.214133
                   0.000806760718        -173.933457       0.0683186684         -166.77954       0.0007170698        -174.207551       0.0206577598         32.0734753
                     0.0193505865        -16.4204266     0.000717069814         -174.20755        0.089351608        -136.945455     0.000726925004        -173.618021
                   0.000840594393        -173.214133        0.020657732         32.0735621     0.000726925005        -173.618021        0.068338621        -166.797244

         140000000      0.0933679735        -143.108315     0.000871600217         179.504303       0.0191222061        -25.8344356     0.000911379653        -179.931725
                   0.000871600211         179.504304       0.0718944417        -176.707258     0.000774588342         179.184645       0.0206040475          30.231008
                     0.0191222106        -25.8344164     0.000774588369         179.184646       0.0935398491        -142.985886     0.000787625883         179.650394
                   0.000911379741        -179.931726       0.0206040125         30.2311489      0.00078762589         179.650394       0.0719294514        -176.726878

         150000000      0.0970391333        -149.084509     0.000936375442         172.874067       0.0186782278         -35.783644     0.000982130927         173.250873
                   0.000936375442         172.874068        0.075413044         173.602394     0.000831940964         172.511013       0.0204139637         29.0562299
                     0.0186782365        -35.7836217     0.000831941014         172.511015         0.09721883        -148.958902     0.000848239852         172.826278
                   0.000982131022          173.25087       0.0204139262         29.0564344     0.000848239876         172.826278       0.0754651636         173.582591

         160000000       0.100080921         -155.00766      0.00100077776         166.183557       0.0180572681        -46.4374051      0.00105235303         166.347568
                    0.00100077777         166.183558       0.0788316717         164.130726     0.000888838383         165.780207       0.0201498881         28.6535635
                     0.0180572806        -46.4373831     0.000888838465         165.780207        0.100266485        -154.879565     0.000908353068         165.922445
                    0.00105235313         166.347563       0.0201498543         28.6538358     0.000908353127         165.922445       0.0789024599         164.112508

         170000000       0.102447664        -160.853506      0.00106436699         159.454491       0.0173049185        -57.9932696      0.00112135337         159.386964
                    0.00106436701         159.454492       0.0819327501          154.94204     0.000944893689         159.015048       0.0198754465         29.0998131
                     0.0173049341        -57.9932499     0.000944893799         159.015046        0.102637048        -160.724137     0.000967418986         158.966995
                    0.00112135345         159.386958       0.0198754236         29.1001504     0.000967419093         158.966998        0.082023214         154.926864

         180000000       0.104205838        -166.662499       0.0011269376         152.684853       0.0165063021        -70.6195236       0.0011888501         152.371587
                    0.00112693763         152.684854       0.0848501549         145.938485     0.000999923159         152.214496       0.0196899748         30.3654463
                     0.0165063201         -70.619507     0.000999923268          152.21449        0.104395953        -166.533277      0.00102519533         151.962265
                    0.00118885016          152.37158       0.0196899695         30.3658362      0.00102519544         151.962273       0.0849608155         145.927865

         190000000       0.105256855        -172.455405      0.00118816567         145.888674       0.0157608708        -84.5282535      0.00125434292         145.321205
                     0.0011881657         145.888674       0.0874904822         137.160319      0.00105364209         145.392955       0.0196890807         32.3875518
                     0.0157608904        -84.5282399      0.00105364216         145.392948        0.105444218        -172.327477      0.00108127308         144.926683
                    0.00125434297         145.321197       0.0196890983         32.3879727      0.00108127309         144.926693       0.0876211808         137.155675

         200000000       0.105531101        -178.200304       0.0012476392         139.085301       0.0151843274        -99.8445405      0.00131718253         138.260794
                    0.00124763924         139.085301       0.0896540929         128.577644      0.00110570463         138.570612       0.0199530407         34.9955137
                     0.0151843479        -99.8445285      0.00110570464         138.570604        0.105712396        -178.074786      0.00113514867         137.885061
                    0.00131718256         138.260785       0.0199530842         34.9959364      0.00113514858          137.88507       0.0898043586         128.580276

         210000000       0.105148741         176.075331      0.00130523429         132.278004       0.0149150908        -116.372754       0.0013772319         131.197279
                    0.00130523432         132.278004       0.0914732176         120.178602      0.00115601876         131.751201       0.0205619812         37.8387374
                     0.0149151116        -116.372742      0.00115601873         131.751195        0.105320387         176.196894      0.00118670713         130.844033
                     0.0013772319         131.197271       0.0205620499          37.839132      0.00118670701         130.844038       0.0916421693         120.189684

         220000000       0.104032094         170.345778      0.00136071871         125.480142       0.0150814585        -133.658274       0.0014341336         124.149576
                    0.00136071873         125.480141       0.0928768563         111.974485      0.00120439843         124.947981       0.0215643916         40.5757185
                     0.0150814788        -133.658261      0.00120439838         124.947976        0.104190274         170.461887      0.00123566448         123.820852
                    0.00143413358         124.149568       0.0215644818         40.5760615      0.00123566436         123.820855       0.0930631093         111.995077

         230000000       0.102096824         164.641874      0.00141381239         118.712522       0.0157638144        -150.999324       0.0014874094         117.144131
                     0.0014138124          118.71252       0.0936223885         103.938485      0.00125063438         118.182223       0.0229616502         42.9209967
                     0.0157638339         -150.99931      0.00125063431         118.182219        0.102238007         164.750998      0.00128167377         116.841621
                    0.00148740935         117.144124       0.0229617558         42.9212757      0.00128167366         116.841623       0.0938242062         103.969593

         240000000      0.0995492057         158.958969      0.00146453265         111.972495       0.0169560938        -167.584577      0.00153717654         110.180289
                    0.00146453264         111.972494       0.0939427169         96.0416436      0.00129478145          111.45142       0.0247248247         44.5928338
                      0.016956112        -167.584564      0.00129478139         111.451418       0.0996698617         159.058753      0.00132483774         109.905919
                    0.00153717647         110.180283       0.0247249384          44.593048      0.00132483765          109.90592       0.0941579837         96.0843217

         250000000       0.096199389         153.218038      0.00151286449         105.282419       0.0186275643         177.052033      0.00158333175         103.289072
                    0.00151286447         105.282417        0.093614751         88.3698284      0.00133684856         104.776589       0.0268248669         45.5028508
                     0.0186275808         177.052043      0.00133684851         104.776587       0.0962955157         153.306374      0.00136507673         103.040619
                    0.00158333167         103.289067       0.0268249816         45.5030072      0.00136507666          103.04062       0.0938410811         88.4248965

         260000000      0.0921591488          147.49613      0.00155873874         98.6480065       0.0206736724         163.035515       0.0016257979         96.4787807
                     0.0015587387          98.648005       0.0926514212         80.8233395      0.00137684066         98.1640482       0.0291833683         45.6510981
                     0.0206736871         163.035523      0.00137684062         98.1640473       0.0922275268         147.570065      0.00140238564         96.2555824
                     0.0016257978          96.478777       0.0291834779         45.6512074      0.00140238559         96.2555832       0.0928861488         80.8918734

         270000000      0.0875586767         141.813784      0.00160226644         92.0732661       0.0229845945          150.27269      0.00166479889         89.7561325
                     0.0016022664         92.0732644       0.0911270351         73.3885189      0.00141491331         91.6171573       0.0317252928         45.0821501
                     0.0229846072         150.272694      0.00141491327         91.6171567       0.0875963945          141.86939      0.00143698137         89.5570901
                    0.00166479879         89.7561297       0.0317253921         45.0822234      0.00143698133         89.5570906       0.0913672844         73.4716811

         280000000      0.0821069063         135.968273      0.00164385129         85.5827059       0.0255076261         138.622713      0.00170080833         83.1589144
                    0.00164385124         85.5827041       0.0887730715         66.2386282      0.00145141737         85.1574524       0.0344251122         43.8653686
                     0.0255076365         138.622715      0.00145141734          85.157452       0.0821101619          136.00161      0.00146919821         82.9753023
                    0.00170080823         83.1589125       0.0344251973         43.8654155      0.00146919818         82.9753027       0.0890159504         66.3373367

