! Created Tue Feb 26 21:55:02 2019
# hz S ma R 50
! 4 Port Network Data from SP1.SP block
! freq  magS11  angS11  magS12  angS12  magS13  angS13  magS14  angS14  
!       magS21  angS21  magS22  angS22  magS23  angS23  magS24  angS24  
!       magS31  angS31  magS32  angS32  magS33  angS33  magS34  angS34  
!       magS41  angS41  magS42  angS42  magS43  angS43  magS44  angS44  
!     
                 0      0.0243904534        -23.9725583    1.90890459e-006        -130.881877      0.00141747506         71.6945713    9.70198761e-007        -157.281745
                  1.90890349e-006        -130.881716       0.0327123845        -17.0780539    5.99947083e-006        -115.903429      0.00155094333         68.6685206
                    0.00141745251         71.7014651    5.99947145e-006        -115.903438       0.0244382397        -23.9811054    1.83003817e-006        -131.310912
                  9.66426522e-007        -157.162829      0.00155099533         68.6634836    1.83001884e-006        -131.310016       0.0327527466        -17.0527427

          10000000      0.0245700114         -22.348077     9.7579788e-006        -107.213186      0.00236170147         75.4815293     1.0529943e-005        -105.997775
                  9.75797879e-006        -107.213186       0.0331237836        -16.6145052    1.21025181e-005        -108.955304      0.00273210795         74.9768666
                    0.00236170147         75.4815293    1.21025182e-005        -108.955304       0.0245817447        -22.2378936    9.47291406e-006        -107.146628
                   1.0529943e-005        -105.997775      0.00273210796         74.9768663    9.47291404e-006        -107.146628       0.0331485014        -16.5879651

          20000000      0.0277431448        -41.8206691    1.86208139e-005        -110.025515      0.00456446084          70.772814    2.01392602e-005        -109.156651
                  1.86208143e-005        -110.025515       0.0346349697        -32.4296714     2.3076376e-005        -110.868964      0.00534743598         73.1686867
                    0.00456445982         70.7733621    2.30763757e-005        -110.868964       0.0277344223         -41.620584    1.80956289e-005        -109.899605
                  2.01392597e-005        -109.156652      0.00534742334            73.1688    1.80956292e-005        -109.899606       0.0346553297        -32.3971427

          30000000      0.0323088772        -57.5817125    2.73074748e-005        -114.843719      0.00667113505         64.5011087    2.95954875e-005        -114.075786
                  2.73074745e-005         -114.84372       0.0364041905        -47.4459599    3.38492035e-005        -115.276814      0.00787299462         69.5733256
                    0.00667114721         64.5011621    3.38492028e-005        -115.276814       0.0322802231        -57.3185269    2.65662887e-005        -114.669627
                  2.95954868e-005        -114.075786      0.00787299311         69.5733242    2.65662892e-005        -114.669627       0.0364162439        -47.4081973

          40000000       0.037725893        -70.3029381    3.59130971e-005        -120.211413      0.00865396221         57.7702664    3.89894259e-005        -119.482674
                  3.59130967e-005        -120.211413       0.0385652203        -61.7033588    4.45712909e-005         -120.40919       0.0102420535          65.718079
                    0.00865397174         57.7702723    4.45712902e-005        -120.409189       0.0376826675         -69.993989    3.49863293e-005        -120.005886
                  3.89894254e-005        -119.482674       0.0102420394         65.7180876      3.498633e-005        -120.005886       0.0385704477        -61.6635221

          50000000      0.0436448057        -80.8419105    4.44918324e-005        -125.822664       0.0104841797         50.8212839    4.83825752e-005        -125.113444
                  4.44918321e-005        -125.822664       0.0411289986        -75.1960503    5.53072522e-005        -125.883612         0.01240013         61.4607072
                     0.0104841827         50.8212745    5.53072518e-005        -125.883612       0.0435950987         -80.495717    4.34137314e-005        -125.607825
                  4.83825749e-005        -125.113444       0.0124001235         61.4607203    4.34137318e-005        -125.607826       0.0411275784        -75.1589751

          60000000      0.0497651552        -90.0456295    5.30929301e-005        -131.579503       0.0121365221         43.7372716    5.78295072e-005        -130.889422
                  5.30929299e-005        -131.579503       0.0439269856        -88.2033138    6.61102856e-005          -131.5665       0.0143216108         57.2535597
                     0.0121365211         43.7372672    6.61102856e-005          -131.5665       0.0497177778         -89.666738    5.18972177e-005        -131.381111
                  5.78295071e-005        -130.889421       0.0143216072          57.253554     5.1897218e-005        -131.381111       0.0439197113        -88.1719764

          70000000      0.0559707217        -98.2164179    6.17391392e-005        -137.436439       0.0135837337         36.5410341    6.73519241e-005        -136.774467
                   6.1739139e-005        -137.436439       0.0470305049        -100.588752    7.70011879e-005        -137.393703       0.0160193085         52.8291564
                     0.0135837355          36.541032     7.7001188e-005        -137.393703       0.0559360414        -97.8083644     6.0454857e-005        -137.281434
                  6.73519242e-005        -136.774467       0.0160193062         52.8291563    6.04548572e-005        -137.281434       0.0470187901        -100.565332

          80000000      0.0621263533        -105.671379    7.04553477e-005        -143.375551        0.014803147          29.235787    7.69695308e-005        -142.754216
                  7.04553474e-005        -143.375551       0.0503369828        -112.458355     8.8001659e-005        -143.336496       0.0174541354         48.5893194
                     0.0148031493         29.2357987    8.80016592e-005        -143.336496       0.0621151409        -105.237251    6.91032683e-005        -143.290009
                   7.6969531e-005        -142.754216       0.0174541351         48.5893056    6.91032684e-005        -143.290009       0.0503233732        -112.443641

          90000000      0.0680934313        -112.788006    7.92764781e-005        -149.404076       0.0157895229         21.8255937    8.67111361e-005        -148.835866
                  7.92764781e-005        -149.404077       0.0537652685        -124.055549    9.91445343e-005        -149.394031       0.0186251614         44.5727473
                      0.015789523          21.825593    9.91445345e-005        -149.394031       0.0681148741        -112.330651    7.78663833e-005        -149.411147
                  8.67111363e-005        -148.835866       0.0186251612         44.5727475    7.78663833e-005        -149.411146       0.0537525213        -124.049638

         100000000      0.0738144967         -119.51182    8.81972969e-005        -155.509106       0.0165204861         14.2758695    9.65589319e-005        -155.004747
                  8.81972969e-005        -155.509106       0.0573240447        -135.226389     0.000110411107        -155.548064       0.0195189726         40.8519732
                     0.0165204863         14.2758692     0.000110411107        -155.548064       0.0738790085        -119.034318    8.67256543e-005        -155.628225
                   9.6558932e-005        -155.004747       0.0195189721         40.8519739    8.67256543e-005        -155.628225       0.0573152527          -135.2286

         110000000      0.0792080818        -125.968272    9.72173629e-005         -161.68849        0.016990976         6.53617316     0.000106500161        -161.254981
                   9.7217363e-005         -161.68849       0.0609498734        -145.966071      0.00012178807        -161.791813       0.0201402976         37.4812007
                     0.0169909751         6.53618807      0.00012178807        -161.791813       0.0793252951        -125.474672     9.5666556e-005         -161.93407
                   0.000106500161        -161.254981       0.0201402893         37.4812171    9.56665561e-005         -161.93407       0.0609474743         -145.97493

         120000000       0.084201953        -132.284893     0.000106342699        -167.956379       0.0172054163         -1.3963065     0.000116530531        -167.598197
                   0.000106342699        -167.956379       0.0646145428        -156.503992     0.000133268137        -168.131646       0.0205122263         34.5217084
                     0.0172054143        -1.39626679     0.000133268136        -168.131646       0.0843798331        -131.777838     0.000104681192        -168.337584
                    0.00011653053        -167.598197       0.0205122082         34.5217536     0.000104681192        -168.337584       0.0646218399         -156.51809

         130000000      0.0886620697          -138.4709     0.000115554177        -174.309224        0.017164698        -9.60338698      0.00012661881        -174.026583
                   0.000115554177        -174.309224       0.0683186684         -166.77954     0.000144811919         -174.56024       0.0206577598         32.0734753
                      0.017164696        -9.60331742     0.000144811917         -174.56024       0.0889080735         -137.95283     0.000113737023        -174.829778
                   0.000126618808        -174.026583        0.020657732         32.0735621     0.000113737023        -174.829778        0.068338621        -166.797244

         140000000      0.0926077613        -144.509255      0.00012480786         179.268112       0.0168676304        -18.1671475     0.000136703813         179.478618
                   0.000124807861         179.268111       0.0718944417        -176.707258     0.000156362366         178.942523       0.0206040475          30.231008
                     0.0168676298        -18.1670469     0.000156362365         178.942523       0.0929287999        -143.983447     0.000122778136         178.609909
                    0.00013670381         179.478618       0.0206040125         30.2311489     0.000122778136         178.609908       0.0719294514        -176.726878

         150000000      0.0960255168        -150.470665     0.000134085013         172.768023        0.016346983        -27.1828212     0.000146760855          172.91337
                   0.000134085013         172.768023        0.075413044         173.602394     0.000167886129         172.373371       0.0204139637         29.0562299
                     0.0163469849         -27.182691     0.000167886128         172.373371       0.0964268617        -149.940739     0.000131778646         171.978864
                    0.00014676085         172.913371       0.0204139262         29.0564344     0.000131778645         171.978863       0.0754651636         173.582591

         160000000      0.0987967746        -156.371164     0.000143343181         166.196205       0.0156268279        -36.8274135      0.00015673948         166.286742
                   0.000143343181         166.196205       0.0788316717         164.130726     0.000179322256         165.740275       0.0201498881         28.6535635
                      0.015626833        -36.8272567     0.000179322255         165.740276       0.0992823262        -155.840394     0.000140689831         165.287159
                   0.000156739471         166.286743       0.0201498543         28.6538358     0.000140689828         165.287158       0.0789024599         164.112508

         170000000       0.100878844        -162.185795      0.00015252348         159.572668       0.0147336402        -47.3259521     0.000166569966         159.621272
                    0.00015252348         159.572668       0.0819327501          154.94204     0.000190600924          159.06632       0.0198754465         29.0998131
                     0.0147336483         -47.325772     0.000190600924         159.066321         0.10145165        -161.657767     0.000149449073         158.558909
                   0.000166569955         159.621274       0.0198754236         29.1001504     0.000149449069         158.558907        0.082023214         154.926864

         180000000       0.102342947        -167.953115     0.000161592814         152.894389       0.0137347957        -58.9265818     0.000176220327         152.915879
                   0.000161592814         152.894389       0.0848501549         145.938485     0.000201681105         152.351457       0.0196899748         30.3654463
                      0.013734806        -58.9263817     0.000201681105         152.351458        0.103004275        -167.432305     0.000158026453          151.79418
                   0.000176220312         152.915881       0.0196899695         30.3658362     0.000158026448         151.794179       0.0849608155         145.927865

         190000000       0.103095379        -173.694358     0.000170500555          146.17403       0.0127079462        -72.0205901     0.000185639315         146.185404
                   0.000170500555          146.17403       0.0874904822         137.160319     0.000212501236         145.608657       0.0196890807         32.3875518
                      0.012707957         -72.020373     0.000212501236         145.608658        0.103844722        -173.185044     0.000166375382         145.008382
                   0.000185639297         146.185406       0.0196890983         32.3879727     0.000166375376         145.008381       0.0876211808         137.155675

         200000000       0.103069735        -179.376713     0.000179184891         139.430312       0.0117540833        -87.0452643     0.000194762819         139.449745
                   0.000179184891         139.430312       0.0896540929         128.577644      0.00022299592         138.858628       0.0199530407         34.9955137
                     0.0117540928         -87.045034      0.00022299592         138.858629        0.103905733        -178.883496     0.000174440978         138.222809
                     0.0001947628         139.449748       0.0199530842         34.9959364     0.000174440971         138.222808       0.0898043586         128.580276

         210000000       0.102391169         174.975206     0.000187617749         132.666501       0.0110277467         -104.19426     0.000203573204         132.712722
                   0.000187617749         132.666501       0.0914732176         120.178602     0.000233140694         132.106181       0.0205619812         37.8387374
                      0.011027753        -104.194024     0.000233140695         132.106182        0.103310608         175.446317     0.000182209659          131.44189
                   0.000203573184         132.712725       0.0205620499          37.839132     0.000182209652         131.441889       0.0916421693         120.189684

         220000000       0.100987174         169.335868     0.000195755043         125.895492       0.0107033107        -123.266094     0.000212035271         125.988315
                   0.000195755044         125.895492       0.0928768563         111.974485     0.000242889664         125.363108       0.0215643916         40.5757185
                     0.0107033125        -123.265867     0.000242889665         125.363108        0.101984881         169.778758     0.000189652212         124.679621
                   0.000212035252         125.988318       0.0215644818         40.5760615     0.000189652204         124.679621       0.0930631093         111.995077

         230000000      0.0987766104          163.73807     0.000203548335         119.138483       0.0109277961        -143.302967      0.00022010705         119.297863
                   0.000203548337         119.138483       0.0936223885         103.938485     0.000252202805         118.651447       0.0229616502         42.9209967
                     0.0109277935        -143.302765     0.000252202806         118.651448       0.0998465476         164.145941     0.000196737331         117.958306
                   0.000220107033         119.297866       0.0229617558         42.9212757     0.000196737324         117.958306       0.0938242062         103.969593

         240000000      0.0959701845         158.182549     0.000210984677          112.39449       0.0117470476        -162.685258     0.000227795366         112.639016
                   0.000210984679          112.39449       0.0939427169         96.0416436     0.000261087382         111.971486       0.0247248247         44.5928338
                     0.0117470418        -162.685093     0.000261087383         111.971487        0.097104749         158.545977     0.000203477218         111.275789
                   0.000227795351         112.639019       0.0247249384          44.593048     0.000203477212          111.27579       0.0941579837         96.0843217

         250000000      0.0923836528         152.589226     0.000218044646          105.68539       0.0131287728         179.720736     0.000235100395         106.034765
                   0.000218044648          105.68539        0.093614751         88.3698284      0.00026952245         105.339931       0.0268248669         45.5028508
                     0.0131287657         179.720861     0.000269522451         105.339931       0.0935726693          152.89926     0.000209874212         104.653616
                   0.000235100382         106.034768       0.0268249816         45.5030072     0.000209874206         104.653616       0.0938410811         88.4248965

         260000000      0.0881307945         147.043938     0.000224707528         99.0200807       0.0149391815         164.258766     0.000242016625         99.4910315
                    0.00022470753         99.0200805       0.0926514212         80.8233395      0.00027752179         98.7684285       0.0291833683         45.6510981
                     0.0149391746         164.258858     0.000277521791         98.7684289       0.0893639807         147.287958     0.000215934884          98.098827
                   0.000242016614         99.4910339       0.0291834779         45.6512074     0.000215934878         98.0988274       0.0928861488         80.8918734

         270000000      0.0833460043         141.576233     0.000230975136         92.4054651       0.0170400909         150.722519     0.000248567411         93.0118144
                   0.000230975138         92.4054649       0.0911270351         73.3885189       0.0002851212         92.2627466       0.0317252928         45.0821501
                     0.0170400853         150.722585     0.000285121201          92.262747       0.0846117384         141.737649     0.000221689395         91.6148519
                   0.000248567403         93.0118165       0.0317253921         45.0822234     0.000221689391         91.6148523       0.0913672844         73.4716811

         280000000      0.0777421425         135.981964     0.000236879502         85.8657343       0.0193609179         138.785386     0.000254820123         86.6220905
                   0.000236879504         85.8657341       0.0887730715         66.2386282     0.000292335743         85.8373751       0.0344251122         43.8653686
                     0.0193609138         138.785432     0.000292335744         85.8373754        0.079026047         136.044486     0.000227193615         85.2234003
                   0.000254820117         86.6220922       0.0344251973         43.8654155     0.000227193612         85.2234007       0.0890159504         66.3373367

