! Created Tue Feb 26 23:00:47 2019
# hz S ma R 50
! 4 Port Network Data from SP1.SP block
! freq  magS11  angS11  magS12  angS12  magS13  angS13  magS14  angS14  
!       magS21  angS21  magS22  angS22  magS23  angS23  magS24  angS24  
!       magS31  angS31  magS32  angS32  magS33  angS33  magS34  angS34  
!       magS41  angS41  magS42  angS42  magS43  angS43  magS44  angS44  
!     
                 0     0.00917746161   -1.67100989e-011    3.46292065e-008        0.497201596     0.000137556135   -1.37298691e-009    2.58144462e-008        0.428537244
                  3.46294247e-008        0.497201291       0.0327123845        -17.0780539    4.60208839e-008         0.49863111      0.00155094333         68.6685206
                   0.000137324075   -1.37528486e-009     4.6021215e-008        0.498632794      0.00926413793    -2.5107612e-011    3.38917049e-008        0.428917432
                  2.58141798e-008        0.428539389      0.00155099533         68.6634836    3.38919098e-008        0.428916469       0.0327527466        -17.0527427

          10000000      0.0103888173         10.1694801    5.82450376e-007         77.8592456      0.00232377627         81.0887676    4.35545117e-007          77.911356
                  5.82450381e-007         77.8592459       0.0331237836        -16.6145052    7.04319662e-007         77.3225446      0.00273210795         74.9768666
                    0.00232377628         81.0887673    7.04319665e-007         77.3225443       0.0103829178          10.098083    5.16033451e-007         77.3041661
                  4.35545123e-007         77.9113562      0.00273210796         74.9768663    5.16033454e-007         77.3041659       0.0331485014        -16.5879651

          20000000      0.0115746402         17.1175998    1.09690412e-006         78.9401838      0.00464737515         81.4507189    8.20291961e-007         78.8878719
                  1.09690412e-006         78.9401839       0.0346349697        -32.4296714    1.32319512e-006         78.6072189      0.00534743598         73.1686867
                    0.00464737913         81.4507957    1.32319512e-006         78.6072188       0.0115624897          16.988904    9.69081271e-007         78.5078857
                  8.20291936e-007         78.8878735      0.00534742334            73.1688    9.69081266e-007         78.5078858       0.0346553297        -32.3971427

          30000000      0.0127573588         23.3373722    1.60228379e-006         78.5591043      0.00698535603         80.6277756    1.19725373e-006         78.4464658
                   1.6022838e-006         78.5591042       0.0364041905        -47.4459599    1.93104098e-006         78.3164501      0.00787299462         69.5733256
                    0.00698535818         80.6277404    1.93104098e-006         78.3164507       0.0127348084         23.1663006    1.41278802e-006         78.1722756
                  1.19725373e-006         78.4464657      0.00787299311         69.5733242    1.41278797e-006         78.1722771       0.0364162439        -47.4081973

          40000000      0.0141118414         28.1764662    2.10512692e-006         77.7056787      0.00932260924         79.6778628    1.57132729e-006         77.5641327
                  2.10512692e-006         77.7056785       0.0385652203        -61.7033588    2.53566636e-006         77.5169696       0.0102420535          65.718079
                    0.00932260637         79.6778601    2.53566633e-006         77.5169689       0.0140767458         27.9799199    1.85296875e-006         77.3574794
                  1.57132729e-006         77.5641341       0.0102420394         65.7180876    1.85296857e-006          77.357477       0.0385704477        -61.6635221

          50000000      0.0156187983         31.7898695    2.60941006e-006         76.6070787       0.0116282534         78.2836953    1.94556433e-006         76.4611434
                  2.60941005e-006         76.6070787       0.0411289986        -75.1960503    3.14179515e-006         76.4562817         0.01240013         61.4607073
                     0.0116282534         78.2837105    3.14179512e-006         76.4562817        0.015569545         31.5807028    2.29323748e-006         76.3047329
                  1.94556432e-006         76.4611438       0.0124001235         61.4607203    2.29323749e-006         76.3047349       0.0411275784        -75.1589751

          60000000      0.0172196026         34.5195602    3.11833697e-006         75.3371543       0.0139192736         76.8421969    2.32252902e-006         75.2068751
                  3.11833696e-006         75.3371542       0.0439269856        -88.2033138    3.75320381e-006         75.2168046       0.0143216108         57.2535597
                     0.0139192747         76.8422043    3.75320383e-006         75.2168049       0.0171553521         34.3055085    2.73660932e-006         75.0919009
                  2.32252903e-006         75.2068753       0.0143216072          57.253554    2.73660932e-006         75.0919011       0.0439197113        -88.1719764

          70000000      0.0188966444         36.3689934    3.63323114e-006         73.9310438       0.0161979628         74.9997188    2.70340443e-006         73.8335757
                  3.63323123e-006         73.9310446       0.0470305049        -100.588752    4.37149827e-006         73.8374705       0.0160193085         52.8291564
                     0.0161979632         74.9997203    4.37149831e-006         73.8374706       0.0188170268         36.1551367    3.18450523e-006         73.7550057
                  2.70340444e-006         73.8335759       0.0160193062         52.8291563    3.18450525e-006          73.755007       0.0470187901        -100.565332

          80000000      0.0206244788         37.7005081    4.15529331e-006         72.4012412       0.0184696602          73.137376    3.08940981e-006         72.3507562
                  4.15529331e-006         72.4012411       0.0503369828        -112.458355    4.99808882e-006          72.333304       0.0174541354         48.5893194
                     0.0184696601         73.1373766    4.99808883e-006          72.333304       0.0205291567         37.4896186    3.63836483e-006         72.3057967
                  3.08940982e-006         72.3507564       0.0174541351         48.5893056    3.63836484e-006         72.3057968       0.0503233732        -112.443641

          90000000      0.0223882244         38.5001982    4.68564756e-006         70.7490897       0.0207336803         71.2630565    3.48173702e-006         70.7556412
                  4.68564756e-006         70.7490897       0.0537652685        -124.055549    5.63431664e-006         70.7070123       0.0186251614         44.5727473
                     0.0207336807         71.2630546    5.63431665e-006         70.7070123       0.0222771405          38.293435    4.09960199e-006         70.7427629
                  3.48173702e-006         70.7556412       0.0186251612         44.5727475      4.099602e-006          70.742763       0.0537525213        -124.049638

         100000000        0.02418104         38.9875883    5.22337555e-006         68.9845144       0.0229905707         69.3791006    3.88008167e-006         69.0548006
                  5.22337555e-006         68.9845144       0.0573240448        -135.226389    6.27913667e-006         68.9691981       0.0195189726         40.8519732
                     0.0229905712         69.3790999    6.27913668e-006         68.9691981       0.0240540365         38.7859391    4.56789009e-006         69.0731681
                  3.88008167e-006         69.0548006       0.0195189721         40.8519739    4.56789009e-006         69.0731681       0.0573152527          -135.2286

         110000000      0.0259767749         39.1025808     5.7674534e-006          67.114426        0.025238452         67.4874556    4.28404015e-006         67.2511594
                  5.76745339e-006         67.1144261       0.0609498734        -145.966071     6.9313782e-006          67.127193       0.0201402976         37.4812007
                     0.0252384501         67.4874589    6.93137816e-006         67.1271928       0.0258340094         38.9064138    5.04278508e-006         67.3003588
                  4.28404015e-006         67.2511593       0.0201402893         37.4812171    5.04278515e-006         67.3003586       0.0609474743         -145.97493

         120000000      0.0277888824         39.0220018    6.31708545e-006         65.1366049       0.0274789508          65.590473    4.69333234e-006         65.3382446
                  6.31708542e-006          65.136605       0.0646145428        -156.503992    7.59014044e-006         65.1791551       0.0205122263         34.5217084
                     0.0274789445         65.5904822    7.59014027e-006         65.1791547       0.0276302979         38.8318042    5.52398861e-006         65.4182032
                  4.69333233e-006         65.3382446       0.0205122082         34.5217536    5.52398889e-006         65.4182016       0.0646218399         -156.51809

         130000000      0.0295989007          38.703267    6.87024709e-006         63.0607627       0.0297113908         63.6911162    5.10671246e-006         63.3220514
                  6.87024701e-006          63.060763       0.0683186684         -166.77954    8.25307806e-006         63.1348077       0.0206577598         32.0734753
                     0.0297113795         63.6911336    8.25307767e-006         63.1348073       0.0294246556         38.5188642    6.01007205e-006         63.4327983
                  5.10671244e-006         63.3220514        0.020657732         32.0735621    6.01007264e-006         63.4327924        0.068338621        -166.797244

         140000000      0.0314173273         38.2554966    7.42322147e-006         60.8985748       0.0319361078         61.7886271    5.52156692e-006         61.2116326
                  7.42322135e-006         60.8985753       0.0718944417        -176.707258    8.91587419e-006         61.0056295       0.0206040475          30.231008
                     0.0319360921          61.788654    8.91587351e-006         61.0056296        0.031227498          38.076964     6.4980141e-006          61.353195
                  5.52156688e-006         61.2116327       0.0206040125         30.2311489    6.49801491e-006         61.3531811       0.0719294514        -176.726878

         150000000      0.0332228743         37.6400196    7.97421794e-006         58.6587181       0.0341523909          59.885084    5.93658383e-006         59.0126721
                  7.97421778e-006          58.658719        0.075413044         173.602394    9.57645309e-006         58.8002511       0.0204139637         29.0562299
                     0.0341523724         59.8851204    9.57645208e-006         58.8002523       0.0330176703         37.4668659     6.9862997e-006         59.1850863
                  5.93658378e-006         59.0126723       0.0204139262         29.0564344    6.98630037e-006         59.1850611       0.0754651636         173.582591

         160000000      0.0350314641         36.9354169    8.52003269e-006         56.3508337       0.0363606071           57.97962    6.34932607e-006          56.732716
                  8.52003249e-006         56.3508349       0.0788316717         164.130726    1.02310908e-005         56.5281127       0.0201498881         28.6535635
                     0.0363605876         57.9796649    1.02310896e-005         56.5281156       0.0348108867         36.7675767    7.47210226e-006         56.9359862
                  6.34932603e-006         56.7327164       0.0201498543         28.6538358    7.47210206e-006         56.9359478       0.0789024599         164.112508

         170000000      0.0368220616         36.1092559    9.05632143e-006         53.9936038       0.0385601377         56.0739127    6.75640671e-006         54.3896058
                   9.0563212e-006         53.9936051       0.0819327501          154.94204    1.08747269e-005         54.2075487       0.0198754465         29.0998131
                     0.0385601191         56.0739641    1.08747253e-005         54.2075539        0.036586346         35.9463592    7.95148061e-006         54.6236474
                  6.75640668e-006         54.3896062       0.0198754236         29.1001504    7.95147876e-006         54.6235964        0.082023214         154.926864

         180000000      0.0386115869         35.2191611    9.58110341e-006         51.5947237       0.0407512633         54.1670095    7.15604088e-006         51.9897289
                  9.58110266e-006         51.5947204       0.0848501549         145.938485    1.15050607e-005         51.8460946       0.0196899748         30.3654463
                     0.0407512471         54.1670651    1.15050595e-005         51.8461068       0.0383608318         35.0609571    8.42235777e-006         52.2544434
                  7.15604087e-006         51.9897294       0.0196899695         30.3658362     8.4223532e-006         52.2543829       0.0849608155         145.927865

         190000000      0.0403830697         34.2389326    1.00913149e-005         49.1716439       0.0429334861         52.2605316    7.54559535e-006         49.5500435
                   1.0091315e-005         49.1716478       0.0874904822         137.160319    1.21185255e-005         49.4608869       0.0196890807         32.3875518
                     0.0429334734         52.2605888    1.21185232e-005          49.460894       0.0401173729         34.0848831    8.88166186e-006         49.8452604
                  7.54559536e-006          49.550044       0.0196890983         32.3879727    8.88165367e-006         49.8451955       0.0876211808         137.155675

         200000000      0.0421504891         33.2113252    1.05828222e-005         46.7399273         0.04510694         50.3533128    7.92157366e-006         47.0867064
                  1.05828223e-005         46.7399299       0.0896540929         128.577644    1.27103078e-005         47.0670967       0.0199530407         34.9955137
                     0.0451069315         50.3533693    1.27103055e-005         47.0671071       0.0418698303         33.0611797     9.3253199e-006         47.4121878
                  7.92157369e-006         47.0867067       0.0199530842         34.9959364    9.32530748e-006         47.4121249       0.0898043586         128.580276

         210000000      0.0438944628         32.1172123    1.10550137e-005         44.3121126       0.0472712894          48.446546    8.28294445e-006         44.6122243
                  1.10550136e-005         44.3121149       0.0914732176         120.178602    1.32797058e-005         44.6770717       0.0205619812         37.8387374
                     0.0472712852         48.4465999    1.32797038e-005          44.677084       0.0435988951         31.9705461    9.75212087e-006         44.9677039
                   8.2829445e-006         44.6122245       0.0205620499          37.839132    9.75210399e-006         44.9676499       0.0916421693         120.189684

         220000000      0.0456318827         30.9866038    1.15058614e-005         41.9026217       0.0494265636         46.5393386    8.62762876e-006          42.141697
                  1.15058613e-005         41.9026242       0.0928768563         111.974485    1.38243649e-005         42.3048477       0.0215643916         40.5757185
                     0.0494265633         46.5393884    1.38243632e-005         42.3048608        0.045321333         30.8432365    1.01596388e-005          42.526828
                  8.62762882e-006         42.1416969       0.0215644818         40.5760615    1.01596177e-005         42.5267897       0.0930631093         111.995077

         230000000      0.0473476179         29.8021294    1.19327628e-005         39.5308025       0.0515723544         44.6329176    8.95312602e-006         39.6962159
                  1.19327628e-005         39.5308051       0.0936223885         103.938485    1.43412626e-005         39.9693316       0.0229616502         42.9209968
                     0.0515723577         44.6329622    1.43412613e-005          39.969345       0.0470220536          29.661737    1.05449554e-005         40.1105591
                  8.95312607e-006         39.6962156       0.0229617558         42.9212757     1.0544931e-005         40.1105416       0.0938242062         103.969593

         240000000      0.0490547374         28.5890097    1.23368457e-005         37.2000198       0.0537087204         42.7262577    9.25950599e-006         37.2804415
                  1.23368457e-005         37.2000224       0.0939427169         96.0416436    1.48317287e-005         37.6737768       0.0247248247         44.5928338
                     0.0537087265         42.7262965    1.48317277e-005           37.67379       0.0487140767         28.4514757    1.09081421e-005         37.7235584
                  9.25950603e-006         37.2804411       0.0247249384          44.593048    1.09081157e-005         37.7235647       0.0941579837         96.0843217

         250000000       0.050738205         27.3339641    1.27184195e-005         34.9340664       0.0558353682         40.8203757    9.54641523e-006         34.9199155
                  1.27184195e-005         34.9340689        0.093614751         88.3698284    1.52961452e-005         35.4413276       0.0268248669         45.5028508
                     0.0558353762         40.8204084    1.52961446e-005         35.4413404       0.0503824352         27.1990543     1.1248786e-005         35.3911683
                  9.54641525e-006         34.9199149       0.0268249816         45.5030072    1.12487593e-005         35.3911986       0.0938410811         88.4248965

         260000000      0.0524112598         26.0558432    1.30774651e-005         32.7375183       0.0579522679         38.9143957    9.81316343e-006         32.6224616
                  1.30774651e-005         32.7375206       0.0926514212         80.8233395     1.5734506e-005         33.2763544       0.0291833683         45.6510981
                     0.0579522769         38.9144225    1.57345056e-005         33.2763662       0.0520403303           25.92349    1.15660788e-005         33.1211857
                  9.81316343e-006          32.622461       0.0291834779         45.6512074    1.15660535e-005         33.1212373       0.0928861488         80.8918734

         270000000      0.0540597234         24.7437864    1.34162496e-005         30.6165354       0.0600591739         37.0092016    1.00607745e-005         30.3976198
                  1.34162496e-005         30.6165374       0.0911270351         73.3885189    1.61494705e-005          31.184823       0.0317252928         45.0821501
                     0.0600591832         37.0092227    1.61494705e-005         31.1848335       0.0536736623         24.6138178    1.18612043e-005         30.9231134
                  1.00607744e-005         30.3976193       0.0317253921         45.0822234     1.1861182e-005         30.9231808       0.0913672844         73.4716811

         280000000      0.0556961956         23.4127576    1.37389881e-005         28.5951907        0.062156018         35.1040099    1.02919796e-005         28.2722035
                  1.37389881e-005         28.5951924       0.0887730715         66.2386282    1.65459765e-005         29.1898923       0.0344251122         43.8653686
                     0.0621560267         35.1040258    1.65459767e-005         29.1899011       0.0552950065         23.2851375    1.21373549e-005         28.8233951
                  1.02919796e-005          28.272203       0.0344251973         43.8654155     1.2137337e-005         28.8234705       0.0890159504         66.3373367

