! Created Tue Feb 26 22:25:54 2019
# hz S ma R 50
! 4 Port Network Data from SP1.SP block
! freq  magS11  angS11  magS12  angS12  magS13  angS13  magS14  angS14  
!       magS21  angS21  magS22  angS22  magS23  angS23  magS24  angS24  
!       magS31  angS31  magS32  angS32  magS33  angS33  magS34  angS34  
!       magS41  angS41  magS42  angS42  magS43  angS43  magS44  angS44  
!     
                 0     0.00937465507   -2.73105651e-013    1.42551106e-008        -179.502111     0.000176492405   -1.71691964e-011    1.16738527e-008        -179.540259
                  1.42547871e-008        -179.502119       0.0327123845        -17.0780539    1.42045973e-008        -179.505586      0.00155094333         68.6685206
                   0.000176119809     -1.720429e-011    1.42034221e-008        -179.505533      0.00936435074   -3.84580879e-013    1.19919587e-008        -179.537938
                  1.16736734e-008        -179.540248      0.00155099533         68.6634836    1.19927517e-008        -179.537942       0.0327527466        -17.0527427

          10000000      0.0102477805         4.68482201    3.55019804e-007        -98.4606307      0.00110568695         75.8505454    2.77951321e-007        -98.3838337
                  3.55019802e-007        -98.4606305       0.0331237836        -16.6145052    3.82226153e-007        -98.0000955      0.00273210795         74.9768666
                    0.00110568696         75.8505448    3.82226151e-007        -98.0000959       0.0102471474         4.77699414    3.02271029e-007        -98.0086037
                  2.77951323e-007        -98.3838342      0.00273210796         74.9768663    3.02271027e-007        -98.0086034       0.0331485014        -16.5879651

          20000000      0.0109604487         7.95716898    6.81159487e-007        -98.0977049       0.0022379314          78.600908    5.33958236e-007        -98.0777273
                  6.81159494e-007        -98.0977049       0.0346349697        -32.4296714    7.34255745e-007         -97.790353      0.00534743598         73.1686867
                    0.00223793632         78.6003734    7.34255741e-007        -97.7903541       0.0109637557         8.11916709    5.81163757e-007        -97.8249473
                  5.33958235e-007        -98.0777281      0.00534742334            73.1688    5.81163754e-007         -97.824947       0.0346553297        -32.3971427

          30000000      0.0114970009         11.6185722     1.0029923e-006        -98.6451458      0.00339038277         79.0583033    7.86324911e-007        -98.6802399
                  1.00299231e-006        -98.6451463       0.0364041905        -47.4459599    1.08173553e-006        -98.3809089      0.00787299462         69.5733256
                    0.00339038108          79.058142    1.08173553e-006        -98.3809089       0.0115063245         11.8441511    8.56170509e-007        -98.4578454
                   7.8632491e-007        -98.6802399      0.00787299311         69.5733242    8.56170493e-007        -98.4578448       0.0364162439        -47.4081973

          40000000      0.0120953342         14.8952244    1.32425304e-006        -99.4815148      0.00454747315         79.2962436    1.03787291e-006        -99.5585507
                  1.32425305e-006        -99.4815151       0.0385652203        -61.7033588    1.42868648e-006        -99.2307761       0.0102420535          65.718079
                    0.00454747015         79.2962335    1.42868648e-006         -99.230776       0.0121131107         15.1747988    1.13034901e-006        -99.3429028
                  1.03787291e-006        -99.5585505       0.0102420394         65.7180876    1.13034902e-006        -99.3429036       0.0385704477        -61.6635221

          50000000      0.0127790178         17.7140683    1.64737736e-006        -100.480665      0.00567944037         78.6468781    1.29047298e-006        -100.586168
                  1.64737736e-006        -100.480665       0.0411289986        -75.1960503    1.77771849e-006        -100.231478         0.01240013         61.4607072
                    0.00567944059         78.6468729     1.7777185e-006        -100.231478       0.0128068443         18.0367607    1.40571878e-006        -100.367868
                  1.29047298e-006        -100.586168       0.0124001235         61.4607203    1.40571878e-006        -100.367868       0.0411275784        -75.1589751

          60000000      0.0135107821         20.1897796     1.9743522e-006        -101.608132      0.00680257572         77.9207266    1.54569747e-006        -101.729652
                   1.9743522e-006        -101.608132       0.0439269856        -88.2033138    2.13095948e-006        -101.354241       0.0143216108         57.2535597
                    0.00680257586         77.9207143    2.13095949e-006        -101.354241       0.0135499807         20.5455211    1.68397845e-006        -101.503725
                  1.54569747e-006        -101.729652       0.0143216072          57.253554    1.68397846e-006        -101.503725       0.0439197113        -88.1719764

          70000000      0.0143051438         22.1169629    2.30597285e-006        -102.847067      0.00791722609         76.3854992    1.80420108e-006        -102.972998
                  2.30597285e-006        -102.847067       0.0470305049        -100.588752    2.48927209e-006        -102.584767       0.0160193085         52.8291564
                    0.00791722499         76.3854945    2.48927209e-006        -102.584766       0.0143563558         22.4988865    1.96584567e-006        -102.736468
                  1.80420109e-006        -102.972998       0.0160193062         52.8291563    1.96584567e-006        -102.736468       0.0470187901        -100.565332

          80000000      0.0151323037         23.7762024    2.64296476e-006        -104.193927      0.00902921418         74.8187596    2.06665482e-006         -104.31393
                  2.64296476e-006        -104.193927       0.0503369828        -112.458355    2.85343666e-006        -103.920803       0.0174541354         48.5893194
                    0.00902921484         74.8187577    2.85343667e-006        -103.920803       0.0151963865         24.1774174    2.25204809e-006        -104.064824
                  2.06665483e-006         -104.31393       0.0174541351         48.5893056     2.2520481e-006        -104.064824       0.0503233732        -112.443641

          90000000      0.0159955411         25.0278995    2.98604765e-006        -105.652485       0.0101379356         73.2326273    2.33373207e-006         -105.75814
                  2.98604765e-006        -105.652485       0.0537652685        -124.055549    3.22423269e-006        -105.367012       0.0186251614         44.5727473
                     0.0101379355         73.2326231     3.2242327e-006        -105.367012       0.0160728135         25.4436885    2.54332156e-006        -105.495174
                  2.33373207e-006         -105.75814       0.0186251612         44.5727475    2.54332156e-006        -105.495174       0.0537525213        -124.049638

         100000000      0.0168807924         26.0812075    3.33460792e-006        -107.215601       0.0112439855         71.6314973    2.60509612e-006        -107.300233
                  3.33460791e-006        -107.215601       0.0573240447        -135.226389      3.600999e-006        -106.916767       0.0195189726         40.8519732
                     0.0112439847         71.6314954      3.600999e-006        -106.916767       0.0169717867         26.5073283    2.83930088e-006        -107.022542
                  2.60509612e-006        -107.300233       0.0195189721         40.8519739    2.83930088e-006        -107.022542       0.0573152527          -135.2286

         110000000      0.0177775248         26.7740214    3.68798889e-006         -108.87813       0.0123455762         70.0149351    2.88037193e-006        -108.937156
                   3.6879889e-006         -108.87813       0.0609498734        -145.966071    3.98302281e-006        -108.565312       0.0201402976         37.4812007
                      0.012345575         70.0149364    3.98302276e-006        -108.565312       0.0178823055         27.2091764    3.13957719e-006        -108.644205
                  2.88037191e-006        -108.937156       0.0201402893         37.4812171    3.13957651e-006        -108.644245       0.0609474743         -145.97493

         120000000      0.0186885518         27.3244632     4.0457256e-006        -110.643216       0.0134444985         68.3901857    3.15932196e-006        -110.674363
                  4.04572562e-006        -110.643215       0.0646145428        -156.503992    4.36979737e-006        -110.316007       0.0205122263         34.5217084
                     0.0134444973         68.3901894     4.3697972e-006        -110.316007       0.0188075046         27.7660209    3.44389027e-006        -110.365809
                  3.15932188e-006        -110.674363       0.0205122082         34.5217536     3.4438905e-006        -110.365883       0.0646218399         -156.51809

         130000000      0.0196053346         27.6274057    4.40655189e-006        -112.501786       0.0145401648         66.7608692    3.44108335e-006        -112.504952
                  4.40655195e-006        -112.501785       0.0683186684         -166.77954    4.75994928e-006        -112.159919       0.0206577598         32.0734753
                     0.0145401639         66.7608742    4.75994896e-006        -112.159917       0.0197384718         28.0743337    3.75129616e-006        -112.180583
                  3.44108316e-006        -112.504953        0.020657732         32.0735621    3.75129713e-006        -112.180693        0.068338621        -166.797244

         140000000      0.0205313581         27.8266095    4.76809953e-006        -114.442867        0.015633122         65.1267198    3.72390812e-006        -114.419601
                  4.76809964e-006        -114.442866       0.0718944417        -176.707258    5.15091295e-006        -114.086113       0.0206040475          30.231008
                     0.0156331215         65.1267252     5.1509125e-006        -114.086109        0.020678975         28.2771593    4.05988532e-006        -114.079259
                   3.7239078e-006        -114.419603       0.0206040125         30.2311489    4.05988674e-006        -114.079407       0.0719294514        -176.726878

         150000000      0.0214528579         27.8342365    5.12929984e-006        -116.458027       0.0167226601         63.4893801    4.00699626e-006        -116.411679
                  5.12930001e-006        -116.458027        0.075413044         173.602394    5.54152618e-006        -116.086253       0.0204139637         29.0562299
                     0.0167226598         63.4893852    5.54152565e-006        -116.086245       0.0216149471         28.2881499    4.36878017e-006        -116.055276
                  4.00699579e-006        -116.411682       0.0204139262         29.0564344    4.36878161e-006        -116.055461       0.0754651636         173.582591

         160000000      0.0223800838         27.7649418    5.48816744e-006        -118.538059       0.0178094634         61.8490018    4.28883026e-006        -118.473432
                  5.48816767e-006        -118.538059       0.0788316717         164.130726    5.92963552e-006        -118.151145       0.0201498881         28.6535635
                     0.0178094634         61.8490063    5.92963499e-006        -118.151134       0.0225568652         28.2210125    4.67632026e-006        -118.100887
                  4.28882964e-006        -118.473436       0.0201498543         28.6538358    4.67632122e-006        -118.101105       0.0789024599         164.112508

         170000000      0.0232977383         27.5482827    5.84193371e-006        -120.665041         0.01889285         60.2066194     4.5672614e-006        -120.587731
                    5.841934e-006        -120.665042       0.0819327501          154.94204    6.31223883e-006        -120.262836       0.0198754465         29.0998131
                     0.0188928502         60.2066231    6.31223836e-006        -120.262822       0.0234891804         28.0065898     4.9801557e-006        -120.198949
                  4.56726063e-006        -120.587736       0.0198754236         29.1001504    4.98015569e-006        -120.199196        0.082023214         154.926864

         180000000      0.0242185975         27.2732532    6.18943827e-006        -122.831505       0.0199734769         58.5622325     4.8413074e-006        -122.748061
                  6.18943854e-006        -122.831507       0.0848501549         145.938485    6.68807376e-006        -122.413869       0.0196899748         30.3654463
                     0.0199734772         58.5622354    6.68807352e-006        -122.413852       0.0244248633         27.7329527    5.27920967e-006        -122.342944
                  4.84130649e-006        -122.748067       0.0196899695         30.3658362    5.27920825e-006        -122.343214       0.0849608155         145.927865

         190000000      0.0251297132         26.8850994    6.52875556e-006        -125.020578       0.0210508132         56.9174496     5.1093989e-006        -124.938266
                  6.52875597e-006        -125.020579       0.0874904822         137.160319     7.0550508e-006        -124.587335       0.0196890807         32.3875518
                     0.0210508136         56.9174518    7.05505063e-006        -124.587317       0.0253507324         27.3463173     5.5717641e-006        -124.516684
                  5.10939787e-006        -124.938272       0.0196890983         32.3879727    5.57176093e-006        -124.516969       0.0876211808         137.155675

         200000000      0.0260421497         26.4517043    6.85723375e-006        -127.217715       0.0221253444         55.2712925    5.36938942e-006        -127.143927
                  6.85723416e-006        -127.217718       0.0896540929         128.577644    7.41029605e-006        -126.768605       0.0199530407         34.9955137
                     0.0221253448          55.271294    7.41029614e-006        -126.768585       0.0262780474         26.9138424    5.85547305e-006        -126.705691
                  5.36938829e-006        -127.143934       0.0199530842         34.9959364    5.85546793e-006        -126.705984       0.0898043586         128.580276

         210000000      0.0269392884         25.9315798    7.17456349e-006        -129.410633       0.0231964718         53.6240761     5.6208624e-006        -129.353079
                  7.17456388e-006        -129.410635       0.0914732176         120.178602    7.75346981e-006        -128.945392       0.0205619812         37.8387374
                     0.0231964722         53.6240771     7.7534702e-006        -128.945372       0.0271900555         26.3949327    6.12987757e-006        -128.897987
                   5.6208612e-006        -129.353085       0.0205620499          37.839132    6.12987042e-006        -128.898281       0.0916421693         120.189684

         220000000      0.0278362706         25.3753887     7.4794448e-006        -131.585603       0.0242647763         51.9758908    5.86264736e-006        -131.552206
                  7.47944515e-006        -131.585606       0.0928768563         111.974485    8.08316572e-006          -131.1039       0.0215643916         40.5757185
                     0.0242647766         51.9758914    8.08316639e-006         -131.10388       0.0281020067         25.8395203    6.39369889e-006        -131.079997
                  5.86264611e-006        -131.552213       0.0215644818         40.5760615    6.39368982e-006        -131.080284       0.0930631093         111.995077

         230000000      0.0287200911         24.7477411    7.77011088e-006          -133.7244       0.0253297357         50.3278639    6.09322415e-006        -133.722749
                   7.7701112e-006        -133.724403       0.0936223885         103.938485    8.39747341e-006          -133.2258       0.0229616502         42.9209967
                      0.025329736         50.3278642    8.39747435e-006         -133.22578       0.0290007347         25.2129112    6.64527731e-006        -133.233083
                  6.09322288e-006        -133.722755       0.0229617558         42.9212757    6.64526653e-006        -133.233357       0.0938242062         103.969593

         240000000      0.0296025787         24.0909416    8.04738289e-006        -135.824022       0.0263918244         48.6791346    6.31296302e-006        -135.861284
                  8.04738317e-006        -135.824025       0.0939427169         96.0416436    8.69728241e-006        -135.308094       0.0247248247         44.5928338
                     0.0263918246         48.6791347    8.69728356e-006        -135.308075       0.0298982114         24.5568227    6.88501676e-006        -135.353805
                  6.31296176e-006         -135.86129       0.0247249384          44.593048    6.88500463e-006         -135.35406       0.0941579837         96.0843217

         250000000      0.0304701025         23.3776025    8.31130243e-006        -137.861127       0.0274505112         47.0303666    6.52169748e-006        -137.944448
                  8.31130266e-006         -137.86113        0.093614751         88.3698284    8.98265133e-006         -137.32736       0.0268248669         45.5028508
                     0.0274505114         47.0303666    8.98265265e-006        -137.327343       0.0307806934          23.844468    7.11274191e-006        -137.418728
                  6.52169627e-006        -137.944453       0.0268249816         45.5030072    7.11272888e-006         -137.41896       0.0938410811         88.4248965

         260000000       0.031335317          22.640191    8.56181398e-006        -139.832261       0.0285062891         45.3810777    6.71915362e-006        -139.967463
                  8.56181417e-006        -139.832264       0.0926514212         80.8233395    9.25352732e-006        -139.280092       0.0291833683         45.6510981
                     0.0285062892         45.3810777    9.25352873e-006        -139.280077       0.0316609328          23.107787    7.32815835e-006        -139.423021
                  6.71915249e-006        -139.967467       0.0291834779         45.6512074    7.32814497e-006        -139.423226       0.0928861488         80.8918734

         270000000      0.0321849675          21.856489    8.80034822e-006        -141.731861       0.0295586338         43.7317775    6.90618632e-006        -141.923423
                  8.80034836e-006        -141.731864       0.0911270351         73.3885189      9.511468e-006         -141.16072       0.0317252928         45.0821501
                     0.0295586339         43.7317775    9.51146943e-006        -141.160707       0.0325255847         22.3250799    7.53220527e-006        -141.359748
                  6.90618529e-006        -141.923427       0.0317253921         45.0822234    7.53219215e-006        -141.359923       0.0913672844         73.4716811

         280000000      0.0330314807         21.0525545    9.02934935e-006        -143.535371       0.0306080316         42.0820822    7.08447011e-006        -143.787479
                  9.02934944e-006        -143.535373       0.0887730715         66.2386282     9.7591554e-006        -142.944655       0.0344251122         43.8653686
                     0.0306080316         42.0820822    9.75915676e-006        -142.944644       0.0333871523         21.5219389    7.72673197e-006        -143.204016
                  7.08446921e-006        -143.787482       0.0344251973         43.8654155    7.72671976e-006        -143.204158       0.0890159504         66.3373367

