! Created Tue Feb 26 16:51:18 2019
# hz S ma R 50
! 4 Port Network Data from SP1.SP block
! freq  magS11  angS11  magS12  angS12  magS13  angS13  magS14  angS14  
!       magS21  angS21  magS22  angS22  magS23  angS23  magS24  angS24  
!       magS31  angS31  magS32  angS32  magS33  angS33  magS34  angS34  
!       magS41  angS41  magS42  angS42  magS43  angS43  magS44  angS44  
!     
                 0      0.0249255371        -22.8620301    5.03004157e-006         128.913004      0.00169703868         73.6545388    1.08022619e-005        -139.222372
                  5.02997469e-006         128.912187       0.0327123845        -17.0780539    3.05513592e-006        -170.356946      0.00155094333         68.6685206
                    0.00169703797         73.6547969    3.05530363e-006        -170.357798        0.024971441        -22.8396116    1.25038615e-005        -155.641613
                  1.08036499e-005        -139.230045      0.00155099533         68.6634836    1.25038615e-005        -155.641621       0.0327527466        -17.0527427

          10000000      0.0249964198        -19.1097373    2.63174221e-005        -109.572034      0.00381943191         75.6196844    3.68751824e-005        -111.927377
                  2.63174221e-005        -109.572034       0.0331237836        -16.6145052    2.90935354e-005        -106.895213      0.00273210795         74.9768666
                    0.00381943191         75.6196844    2.90935354e-005        -106.895212       0.0250199144        -19.1248113    3.64750311e-005        -117.691501
                  3.68751824e-005        -111.927377      0.00273210796         74.9768663    3.64750311e-005        -117.691501       0.0331485014        -16.5879651

          20000000      0.0275426785         -36.664862    5.04608706e-005        -111.053656      0.00741128669         69.6204818    7.02642298e-005        -112.241897
                  5.04608717e-005        -111.053657       0.0346349697        -32.4296714    5.64972863e-005        -109.630761      0.00534743598         73.1686867
                    0.00741125325         69.6204854     5.6497287e-005        -109.630762       0.0275716802        -36.6948631    6.75070595e-005        -115.401478
                  7.02642314e-005        -112.241897      0.00534742334            73.1688    6.75070586e-005        -115.401478       0.0346553297        -32.3971427

          30000000       0.031311221        -51.6547547     7.4259304e-005         -115.46397       0.0108376055          62.185037      0.00010323468        -116.213056
                  7.42593038e-005        -115.463971       0.0364041905        -47.4459599    8.34433912e-005        -114.629072      0.00787299462         69.5733256
                     0.0108376028         62.1850305    8.34433897e-005        -114.629072       0.0313475586        -51.6960356    9.86430175e-005        -118.446563
                   0.000103234679        -116.213056      0.00787299311         69.5733242    9.86430175e-005        -118.446562       0.0364162439        -47.4081973

          40000000      0.0359603739        -64.2791032    9.80248621e-005        -120.668287       0.0140414411         54.3150892      0.00013612466        -121.184219
                  9.80248623e-005        -120.668287       0.0385652203        -61.7033588      0.00011024177        -120.232975       0.0102420535          65.718079
                     0.0140414398         54.3151029     0.000110241768        -120.232976       0.0360036271        -64.3281491     0.000129770119        -122.979117
                   0.000136124658         -121.18422       0.0102420394         65.7180876     0.000129770118        -122.979117       0.0385704477        -61.6635221

          50000000      0.0412420973        -75.0433045     0.000121939361        -126.234666       0.0169673307         46.2095894     0.000169119694        -126.595034
                   0.000121939361        -126.234667       0.0411289986        -75.1960503     0.000137044403        -126.102506         0.01240013         61.4607072
                     0.0169673313         46.2096027     0.000137044402        -126.102506       0.0412909612         -75.098049      0.00016098142        -128.142258
                   0.000169119693        -126.595034       0.0124001235         61.4607203     0.000160981421        -128.142257       0.0411275784        -75.1589751

          60000000       0.046884651        -84.6101897     0.000146173816        -132.029818       0.0195684175         37.9223659     0.000202413359        -132.258096
                   0.000146173816        -132.029818       0.0439269856        -88.2033138     0.000163994145        -132.131069       0.0143216108         57.2535597
                     0.0195684176         37.9223662     0.000163994146        -132.131069       0.0469376439        -84.6695511     0.000192434824        -133.647562
                    0.00020241336        -132.258096       0.0143216072          57.253554     0.000192434824        -133.647562       0.0439197113        -88.1719764

          70000000       0.052807072        -93.2050024     0.000170797858        -137.995045       0.0218001382         29.4538175     0.000236102801        -138.089601
                   0.000170797858        -137.995045       0.0470305049        -100.588752     0.000191151623         -138.27079       0.0160193085         52.8291564
                     0.0218001378         29.4538108     0.000191151624         -138.27079       0.0528619356        -93.2684249     0.000224215205        -139.367876
                   0.000236102802        -138.089601       0.0160193062         52.8291563     0.000224215205        -139.367876       0.0470187901        -100.565332

          80000000       0.058884025        -101.112892     0.000195877036        -144.106873       0.0236284711         20.7813594     0.000270297011        -144.054417
                   0.000195877036        -144.106874       0.0503369828        -112.458355     0.000218581722        -144.503168       0.0174541354         48.5893194
                     0.0236284706         20.7813606     0.000218581723        -144.503168        0.058938362        -101.179872     0.000256428735        -145.246343
                   0.000270297012        -144.054416       0.0174541351         48.5893056     0.000256428735        -145.246343       0.0503233732        -112.443641

          90000000       0.064960541        -108.704216     0.000221503352        -150.371468       0.0250428724          11.871028      0.00030515132        -150.153208
                   0.000221503352        -150.371468       0.0537652685        -124.055549       0.0002463778        -150.835229       0.0186251614         44.5727473
                     0.0250428724           11.87103       0.0002463778        -150.835229       0.0650116545        -108.774294     0.000289230935        -151.271725
                   0.000305151321        -150.153208       0.0186251612         44.5727475     0.000289230935        -151.271725       0.0537525213        -124.049638

         100000000      0.0710017841        -115.917825     0.000247610309        -156.769398       0.0260240789         2.65864148     0.000340634962        -156.368076
                   0.000247610309        -156.769398       0.0573240447        -135.226389      0.00027450317         -157.25299       0.0195189726         40.8519732
                     0.0260240792         2.65863976     0.000274503171         -157.25299       0.0710468278         -115.99081     0.000322610598        -157.420289
                   0.000340634962        -156.368076       0.0195189721         40.8519739     0.000322610598        -157.420289       0.0573152527          -135.2286

         110000000      0.0769209252        -122.879677      0.00027414749        -163.291897       0.0265809209        -6.94310556     0.000376736352        -162.694417
                   0.000274147492        -163.291896       0.0609498734        -145.966071     0.000302934433        -163.752126       0.0201402976         37.4812007
                     0.0265809193        -6.94311477     0.000302934434        -163.752126       0.0769582281        -122.955169      0.00035657449        -163.684263
                   0.000376736354        -162.694417       0.0201402893         37.4812171     0.000356574489        -163.684263       0.0609474743         -145.97493

         120000000      0.0826304073         -129.72235     0.000301077796        -169.951392        0.026737884        -17.0111363     0.000413456559        -169.145435
                    0.00030107781        -169.951388       0.0646145428        -156.503992     0.000331665609        -170.347248       0.0205122263         34.5217084
                     0.0267378783        -17.0111537     0.000331665613        -170.347249       0.0826562858        -129.800461     0.000391148451        -170.076143
                   0.000413456563        -169.145435       0.0205122082         34.5217536     0.000391148447        -170.076143       0.0646218399         -156.51809

         130000000      0.0879930472        -136.450914      0.00032827136        -176.736717       0.0265341474        -27.6861923     0.000450670875        -175.715888
                   0.000328271421        -176.736706       0.0683186684         -166.77954     0.000360611595         -177.03245       0.0206577598         32.0734753
                     0.0265341358        -27.6862161     0.000360611601        -177.032452       0.0880040454        -136.531743     0.000426239074        -176.590658
                   0.000450670884        -175.715888        0.020657732         32.0735621     0.000426239066        -176.590659        0.068338621        -166.797244

         140000000      0.0930203095        -143.054878     0.000355507988         176.377728       0.0260265094        -39.1240242     0.000488162524         177.613944
                   0.000355508195         176.377752       0.0718944417        -176.707258      0.00038959796         176.209962       0.0206040475          30.231008
                     0.0260264909        -39.1240513     0.000389597967         176.209959       0.0930131854        -143.138564     0.000461657044         176.790608
                   0.000488162538         177.613945       0.0206040125         30.2311489      0.00046165703         176.790608       0.0719294514        -176.726878

         150000000      0.0976809303          -149.6087     0.000382678114         169.390993       0.0253207265        -51.4962641     0.000525806236         170.838844
                   0.000382678749         169.391037        0.075413044         173.602394     0.000418545142         169.374326       0.0204139637         29.0562299
                      0.025320701        -51.4962914     0.000418545143         169.374321       0.0976525886        -149.695426     0.000497300412         170.061565
                   0.000525806254         170.838844       0.0204139262         29.0564344      0.00049730039         170.061565       0.0754651636         173.582591

         160000000       0.101840378        -156.125322     0.000409582363         162.316598       0.0245477981        -65.0027644     0.000563358495         163.967185
                    0.00040958429         162.316656       0.0788316717         164.130726     0.000447296714         162.469108       0.0201498881         28.6535635
                     0.0245477663        -65.0027896     0.000447296704         162.469102        0.101787828        -156.215276     0.000532954684         163.229751
                   0.000563358517         163.967185       0.0201498543         28.6538358     0.000532954655         163.229751       0.0789024599         164.112508

         170000000        0.10543974        -162.581474     0.000435963174         155.184022        0.023872831        -79.7870677     0.000600514988         157.023969
                    0.00043596997         155.183987       0.0819327501          154.94204     0.000475639081         155.517345       0.0198754465         29.0998131
                     0.0238727941        -79.7870898     0.000475639054         155.517343        0.105360328        -162.674912     0.000568338192         156.318816
                   0.000600515015         157.023968       0.0198754236         29.1001504     0.000568338155         156.318817        0.082023214         154.926864

         180000000       0.108528247        -169.021741     0.000461692827         147.996252       0.0235040979        -95.8056927     0.000637086808         150.009609
                   0.000461769859         147.991631       0.0848501549         145.938485     0.000503458503         148.517571       0.0196899748         30.3654463
                     0.0235040572        -95.8057121      0.00050345865         148.517633         0.10841948        -169.119001     0.000603273448         149.328275
                   0.000637086874         150.009608       0.0196899695         30.3658362     0.000603273405         149.328276       0.0849608155         145.927865

         190000000       0.110989375        -175.464952     0.000486569769         140.773014       0.0236578716        -112.786118     0.000672790837         142.939973
                   0.000486548513         140.775564       0.0874904822         137.160319     0.000530588502         141.485557       0.0196890807         32.3875518
                     0.0236578284        -112.786136     0.000530588286         141.485528        0.110849034        -175.566427     0.000637493957         142.273548
                   0.000672790848         142.939973       0.0196890983         32.3879727     0.000637493909         142.273549       0.0876211808         137.155675

         200000000       0.112736922         178.119484     0.000510354497         133.541913       0.0245100058        -130.162859     0.000707308346         135.839373
                   0.000510352792         133.544088       0.0896540929         128.577644     0.000556825882         134.442574       0.0199530407         34.9955137
                     0.0245099613        -130.162876      0.00055682564         134.442565        0.112563183         178.013384     0.000670690153         135.177958
                   0.000707308364         135.839373       0.0199530842         34.9959364     0.000670690104          135.17796       0.0898043586         128.580276

         210000000       0.113871484         171.700092     0.000532991121         126.311055       0.0261431847        -147.181607     0.000740483711         128.714427
                    0.00053299761          126.31219       0.0914732176         120.178602     0.000582094542         127.392906       0.0205619812         37.8387374
                     0.0261431399        -147.181621     0.000582094358         127.392906        0.113662818         171.588825     0.000702698526         128.047726
                   0.000740483729         128.714427       0.0205620499          37.839132     0.000702698477         128.047729       0.0916421693         120.189684

         220000000       0.114296099         165.252447     0.000554346854         119.097992       0.0285488939        -163.249774     0.000772072598         121.581332
                    0.00055435323         119.098448       0.0928768563         111.974485     0.000606274694         120.351802       0.0215643916         40.5757185
                     0.0285488498        -163.249785     0.000606274557         120.351803        0.114051357         165.135376     0.000733274941         120.899068
                   0.000772072614         121.581332       0.0215644818         40.5760615     0.000733274895          120.89907       0.0930631093         111.995077

         230000000       0.113908945         158.803326     0.000574262596         111.931013       0.0316403876         -178.07379     0.000801828947         114.467161
                   0.000574267468         111.931184       0.0936223885         103.938485     0.000629234012         113.342689       0.0229616502         42.9209967
                     0.0316403451        -178.073796     0.000629233896          113.34269        0.113627485         158.679802     0.000762164053         113.758455
                   0.000801828961         114.467161       0.0229617558         42.9212757     0.000762164011         113.758457       0.0938242062         103.969593

         240000000       0.112896306         152.341531     0.000592774753         104.810853       0.0352590851         168.389668     0.000829697398         107.374439
                   0.000592778349         104.810904       0.0939427169         96.0416436     0.000650964714         106.363704       0.0247248247         44.5928338
                     0.0352590452         168.389666     0.000650964608         106.363705        0.112577928         152.210729     0.000789277238         106.628408
                   0.000829697411          107.37444       0.0247249384          44.593048     0.000789277201         106.628411       0.0941579837         96.0843217

         250000000       0.111052644         145.793381     0.000609857138         97.7658846        0.039286966         156.018888     0.000855530721         100.327573
                   0.000609859785         97.7658829        0.093614751         88.3698284      0.00067146273         99.4392962       0.0268248669         45.5028508
                     0.0392869294          156.01889     0.000671462633         99.4392973        0.110697576         145.654231     0.000814461782         99.5342004
                   0.000855530735         100.327574       0.0268249816         45.5030072     0.000814461751          99.534203       0.0938410811         88.4248965

         260000000       0.108470971         139.219958     0.000625517378         90.8078646       0.0435764376         144.607835     0.000879271428         93.3424319
                   0.000625519316         90.8078405       0.0926514212         80.8233395     0.000690696981         92.5772491       0.0291833683         45.6510981
                     0.0435764052          144.60784     0.000690696893         92.5772504        0.108080104         139.071353     0.000837613676         92.4911967
                   0.000879271443         93.3424326       0.0291834779         45.6512074      0.00083761365         92.4911991       0.0928861488         80.8918734

         270000000       0.105260623         132.629209     0.000639860814         83.9442522       0.0479930246         133.961745     0.000900961055         86.4300972
                   0.000639862214         83.9442206       0.0911270351         73.3885189     0.000708716921         85.7829829       0.0317252928         45.0821501
                     0.0479929971         133.961752     0.000708716845         85.7829845        0.104835454         132.469876     0.000858724656         85.5112155
                    0.00090096107          86.430098       0.0317253921         45.0822234     0.000858724635         85.5112175       0.0913672844         73.4716811

         280000000       0.101129771         125.835582     0.000653061487         77.2056217       0.0524660717         123.948661      0.00092064453         79.6164606
                    0.00065306247         77.2055902       0.0887730715         66.2386282     0.000725727267         79.0823864       0.0344251122         43.8653686
                     0.0524660496         123.948669     0.000725727205          79.082388        0.100672223         125.663361     0.000877840093          78.621969
                   0.000920644545         79.6164613       0.0344251973         43.8654155     0.000877840077         78.6219706       0.0890159504         66.3373367

