! Created Wed Feb 27 21:19:52 2019
# hz S ma R 50
! 4 Port Network Data from SP1.SP block
! freq  magS11  angS11  magS12  angS12  magS13  angS13  magS14  angS14  
!       magS21  angS21  magS22  angS22  magS23  angS23  magS24  angS24  
!       magS31  angS31  magS32  angS32  magS33  angS33  magS34  angS34  
!       magS41  angS41  magS42  angS42  magS43  angS43  magS44  angS44  
!     
                 0      0.0245221419        -24.4369418    4.07516415e-006        -138.404914      0.00125729678         72.2804302    3.80621921e-006        -140.796328
                  4.07516194e-006        -138.404885       0.0321138061        -18.0610722    3.81199367e-006        -140.716954      0.00122297166         78.3521493
                    0.00125729557          72.280889    3.81199185e-006        -140.716935       0.0244736005        -24.4685086     7.5559602e-006        -136.943797
                  3.80620793e-006        -140.796172      0.00122296091         78.3562163    7.55596443e-006        -136.943815       0.0329041234        -17.6507772

          10000000      0.0247857527        -20.4828756    3.25870472e-005         -105.59192      0.00337299405         75.9066765    3.08478624e-005        -105.746839
                  3.25870457e-005         -105.59192       0.0330620458        -17.2636267    3.09047243e-005        -105.698055      0.00245975079         76.5262392
                    0.00337299405         75.9066781    3.09047252e-005        -105.698055         0.02479415        -20.4909448    3.42803037e-005        -108.702616
                  3.08478634e-005        -105.746839      0.00245974929         76.5273384     3.4280304e-005        -108.702615       0.0330838317         -17.280533

          20000000      0.0277667677         -38.618424    6.27292009e-005        -108.667353      0.00655946494         68.2574981    5.93658717e-005         -108.79244
                  6.27291902e-005        -108.667354       0.0345971466        -33.5513509    5.94955974e-005        -108.742509      0.00482300699         74.9965902
                    0.00655957056         68.2579142    5.94956005e-005        -108.742499       0.0277990524        -38.6248395    6.57044717e-005        -110.144711
                  5.93658752e-005         -108.79243      0.00482323696         74.9939008     6.5704482e-005        -110.144711       0.0346437557        -33.5795075

          30000000      0.0321511633        -53.5071209    9.26279668e-005        -113.662159      0.00963907037         59.6781526    8.76351205e-005         -113.79673
                  9.26279634e-005        -113.662158        0.036408149        -48.9265529    8.78580427e-005        -113.742061       0.0071265553         72.0923128
                    0.00963907795         59.6781184    8.78580453e-005        -113.742062       0.0321589489        -53.5242508    9.69998074e-005        -114.577081
                  8.76351235e-005        -113.796731      0.00712657151         72.0924265    9.69998098e-005        -114.577082       0.0364241928        -48.9734997

          40000000      0.0374608257        -65.6493434     0.000122471653        -119.208776       0.0125856433         50.7977812     0.000115823046         -119.35649
                   0.000122471651        -119.208775       0.0386659127        -63.4874793     0.000116165464        -119.301413      0.00932152287          69.051329
                     0.0125856398         50.7977894     0.000116165465        -119.301414       0.0374673222        -65.6694634     0.000128270194        -119.842182
                   0.000115823047         -119.35649      0.00932154927         69.0515532     0.000128270195        -119.842183       0.0386745268        -63.5495895

          50000000      0.0433981212        -75.7551544     0.000152392554        -125.013515       0.0153683768         41.7542732     0.000144052169        -125.171022
                   0.000152392553        -125.013515       0.0413225935        -77.2157613     0.000144542737        -125.121108       0.0113671602         65.6021745
                     0.0153683752         41.7542763     0.000144542738        -125.121109        0.043403908        -75.7796109     0.000159626964        -125.478967
                    0.00014405217        -125.171023       0.0113671763         65.6022506     0.000159626965        -125.478967       0.0413227468        -77.2931806

          60000000      0.0496684516        -84.5990238     0.000182522741         -130.98398       0.0179616547          32.588064     0.000172448684        -131.145272
                   0.000182522741        -130.983979        0.044201928        -90.4052105      0.00017311529        -131.107103       0.0132531355         62.1986662
                     0.0179616539         32.5880635      0.00017311529        -131.107103       0.0496730369        -84.6272962     0.000191197092        -131.336937
                   0.000172448684        -131.145272       0.0132531391         62.1986734     0.000191197092        -131.336937       0.0441941932        -90.4964421

          70000000      0.0561645703        -92.4707777     0.000212933923        -137.074931       0.0203380654         23.2945766     0.000201086058        -137.232932
                   0.000212933923        -137.074931       0.0473520374         -102.96665     0.000201950706         -137.21354       0.0149946187         58.5175223
                     0.0203380655          23.294577     0.000201950706         -137.21354       0.0561672996        -92.5027305     0.000223066834        -137.341448
                   0.000201086058        -137.232932       0.0149946185         58.5175173     0.000223066834        -137.341448       0.0473442061        -103.073002

          80000000      0.0627506112        -99.6779276     0.000243664222        -143.268515        0.022479192         13.8722446     0.000230009951        -143.416801
                   0.000243664221        -143.268515       0.0506762812        -114.984143     0.000231086377        -143.422449       0.0165657725          54.973963
                     0.0224791925         13.8722452     0.000231086377        -143.422449       0.0627510451        -99.7134164       0.0002552834        -143.464728
                   0.000230009951        -143.416801        0.016565772         54.9739597     0.000255283401        -143.464728       0.0506702363        -115.104803

          90000000      0.0692610211        -106.585158     0.000274769953        -149.569716       0.0243833044         4.31794794     0.000259284409        -149.702948
                   0.000274769953        -149.569716       0.0541041249        -126.696895     0.000260576518        -149.738829       0.0179702847         51.5791262
                     0.0243833044         4.31794763     0.000260576518        -149.738829       0.0692589113        -106.624032     0.000287910684         -149.70698
                   0.000259284409        -149.702948        0.017970284         51.5791292     0.000287910684         -149.70698       0.0540997949        -126.830266

         100000000       0.075650625        -113.143043     0.000306160326        -155.961402       0.0260351423        -5.39757302     0.000288836898        -156.075393
                   0.000306160326        -155.961402       0.0576378593        -137.955419     0.000290336005         -156.14554       0.0191966516         48.3801531
                     0.0260351422        -5.39757306     0.000290336005         -156.14554       0.0756458465        -113.185192     0.000320857056        -156.048349
                   0.000288836898        -156.075393       0.0191966514         48.3801512     0.000320857057        -156.048349       0.0576344108          -138.0993

         110000000      0.0818407022        -119.451291     0.000337771561        -162.436208       0.0274273589        -15.2932026     0.000318621272        -162.528117
                   0.000337771561        -162.436208       0.0611959035        -148.765184     0.000320305759        -162.635256       0.0202410154         45.4052757
                     0.0274273589        -15.2932027     0.000320305759        -162.635256       0.0818128665        -119.491483     0.000354063226        -162.479991
                   0.000318621272        -162.528117       0.0202410152         45.4052743     0.000354063227        -162.479991       0.0611948461         -148.91881

         120000000      0.0877154092        -125.678946     0.000369549296        -169.002271       0.0285856092        -25.3961102     0.000348598667        -169.071003
                   0.000369549296        -169.002271       0.0647664346        -159.364145     0.000350433756        -169.216363       0.0211293107          42.654421
                     0.0285856092        -25.3961103     0.000350433756        -169.216363       0.0876796357        -125.720133      0.00038747039        -169.007965
                   0.000348598666        -169.071003       0.0211293105         42.6544199      0.00038747039        -169.007965       0.0647687655         -159.52534

         130000000      0.0931261899        -131.818067     0.000401364046        -175.648816       0.0295230866        -35.7455916     0.000378658742        -175.694827
                   0.000401364046        -175.648816       0.0683427514        -169.690899     0.000380597736        -175.878155       0.0218695722         40.1683392
                     0.0295230866        -35.7455917     0.000380597735        -175.878155        0.093089152        -131.862315     0.000420942525        -175.621282
                   0.000378658742        -175.694827       0.0218695719         40.1683384     0.000420942525        -175.621282       0.0683491017        -169.857577

         140000000      0.0980815178        -137.854552     0.000433003752         177.646586       0.0302546522        -46.3703685     0.000408610886         177.621392
                   0.000433003752         177.646586        0.071749453        -179.665806     0.000410596546         177.401783       0.0224658488         37.9777095
                     0.0302546522        -46.3703686     0.000410596546         177.401783       0.0980453869         -137.90305     0.000454265153         177.702934
                   0.000408610886         177.621392       0.0224658485         37.9777088     0.000454265153         177.702934       0.0717596504        -179.836335

         150000000       0.102544112        -143.857215       0.0004643712         170.882594       0.0308229375        -57.2856091     0.000438368603         170.874907
                   0.000464371201         170.882594       0.0750606949         170.605631     0.000440337532         170.622013       0.0229491615         36.0678443
                     0.0308229375        -57.2856092     0.000440337532         170.622013        0.102508984        -143.910645     0.000487334187          170.96355
                   0.000438368603         170.874907       0.0229491612         36.0678438     0.000487334187          170.96355       0.0750745763         170.433066

         160000000       0.106378618        -149.835603     0.000495298849          164.07069       0.0312719366        -68.5313075     0.000467777446         164.076083
                   0.000495298849          164.07069       0.0782334661         161.104534     0.000469661528         163.794023       0.0233418556         34.4716807
                     0.0312719366        -68.5313077     0.000469661528         163.794023        0.106343596        -149.894194     0.000519970233         164.171813
                   0.000467777446         164.076083       0.0233418553         34.4716803     0.000519970233         164.171813       0.0782504838         160.931724

         170000000       0.109530949        -155.767258     0.000525574285         157.236034       0.0316449441        -80.1458573     0.000496637747         157.249168
                   0.000525574285         157.236034       0.0810462133         151.888975     0.000498366733         156.943082       0.0236561536         33.2195605
                     0.0316449441        -80.1458574     0.000498366733         156.943082        0.109494883        -155.831014     0.000551952264         157.352985
                   0.000496637747         157.249169       0.0236561533         33.2195603     0.000551952264         157.352985       0.0810653469         151.717079

         180000000       0.112048958        -161.699101     0.000555106083         150.379161       0.0319915817        -92.1227926     0.000524858058         150.393805
                   0.000555106083         150.379161       0.0836381399         142.868238     0.000526365572         150.069661       0.0239304621         32.2799302
                     0.0319915817        -92.1227927     0.000526365572         150.069661        0.112010711        -161.767958     0.000583178151         150.507795
                   0.000524858058         150.393805       0.0239304617         32.2799301     0.000583178151         150.507795       0.0836578439         142.698956

         190000000       0.113817954        -167.648427     0.000583756449         143.515944       0.0323680439        -104.450125     0.000552302326         143.525257
                   0.000583756449         143.515944       0.0859133352         134.081947     0.000553527351         143.189698       0.0241968465         31.6683506
                      0.032368044        -104.450126     0.000553527351         143.189698        0.113776568        -167.722285     0.000613494888         143.651748
                   0.000552302326         143.525257       0.0241968462         31.6683506     0.000613494888         143.651748         0.08593191         133.916737

         200000000       0.114762346        -173.585236     0.000611361379         136.667472       0.0328345343        -117.096342     0.000578806624         136.664175
                   0.000611361379         136.667472       0.0876768305         125.495094     0.000579696613         136.324424       0.0244773624          31.394694
                     0.0328345343        -117.096342     0.000579696613         136.324424        0.114717133        -173.663998     0.000642725962         136.806174
                   0.000578806624         136.664175       0.0244773621         31.3946942     0.000642725962         136.806174       0.0876922622         125.335029

         210000000       0.114985436        -179.547736     0.000637905148          129.83763       0.0334467637        -129.973777     0.000604340358         129.814007
                   0.000637905148         129.837629       0.0890626296         117.103742     0.000604857835         129.477624       0.0248120373         31.3913574
                     0.0334467637        -129.973777     0.000604857835         129.477624        0.114935911          -179.6314     0.000670844278          129.97526
                   0.000604340358         129.814007        0.024812037         31.3913577     0.000670844278          129.97526       0.0890726394         116.950302

         220000000       0.114394866         174.439628     0.000663328059         123.039732       0.0342624817        -143.003974      0.00062883111         122.987923
                   0.000663328059         123.039732       0.0900011207         108.920315      0.00062895488         122.662644       0.0252396636         31.6272148
                     0.0342624817        -143.003974      0.00062895488         122.662644        0.114340743         174.351011     0.000697772624         123.172072
                    0.00062883111         122.987923       0.0252396634         31.6272152     0.000697772624         123.172072       0.0900030775         108.774977

         230000000       0.112904125         168.403743     0.000687561029         116.294668       0.0353267444        -156.099908     0.000652195602         116.206853
                   0.000687561029         116.294668       0.0902562678         100.912032     0.000651923172         115.900489       0.0257842403         32.0725159
                     0.0353267444        -156.099908     0.000651923172         115.900489        0.112845339         168.310081     0.000723429835         116.417955
                   0.000652195602         116.206853       0.0257842401         32.0725163     0.000723429836         116.417955       0.0902476165         100.775917

         240000000       0.110709297         162.319566     0.000710683676         109.598571       0.0366449711        -169.131506     0.000674482001         109.467117
                   0.000710683675         109.598571       0.0900663678         93.0616859     0.000673836535         109.187104       0.0264718325         32.5994848
                     0.0366449711        -169.131506     0.000673836535         109.187104        0.110645927         162.220631     0.000747888512         109.709967
                   0.000674482002         109.467117       0.0264718323         32.5994852     0.000747888512         109.709967       0.0900444944         92.9366463

         250000000       0.107604539         156.115654     0.000732762625         102.971255       0.0382510493         177.993722      0.00069573198         102.789026
                   0.000732762625         102.971255       0.0892062705         85.4555775     0.000694760176         102.542338       0.0273421781          33.145678
                     0.0382510493         177.993722     0.000694760176         102.542338         0.10753676         156.011151      0.00077119172         103.067187
                   0.000695731981         102.789026       0.0273421779         33.1456784     0.000771191721         103.067187       0.0891682083         85.3432823

         260000000       0.103710267         149.841427     0.000753849442         96.4168624       0.0401211494         165.349755      0.00071596537         96.1775472
                   0.000753849442         96.4168624        0.087703579         77.9958935     0.000714741478          95.970313       0.0283906027         33.6238765
                     0.0401211494         165.349755     0.000714741478          95.970313        0.103638497         149.730981     0.000793392786         96.4956136
                   0.000715965371         96.1775472       0.0283906026         33.6238769     0.000793392786         96.4956136       0.0876469424         77.8983928

         270000000      0.0991551383         143.489356     0.000774080256         89.9359537       0.0422196142         152.990224      0.00073528061         89.6344846
                   0.000774080256         89.9359537       0.0856404533         70.6768083     0.000733907291         89.4715141       0.0296126523         33.9416714
                     0.0422196142         152.990224     0.000733907291         89.4715141       0.0990798007         143.372406     0.000814629186         89.9969873
                    0.00073528061         89.6344846       0.0296126523         33.9416717     0.000814629186         89.9969873       0.0855631286         70.5967238

         280000000      0.0936328251         136.865822     0.000793720222         83.5469578       0.0445589012         140.962193      0.00075390865          83.179634
                   0.000793720222         83.5469578       0.0827432417          63.682503     0.000752512764         83.0643513       0.0310431019         34.0303496
                     0.0445589012         140.962193     0.000752512764         83.0643513       0.0935544961         136.741657      0.00083513008         83.5886349
                    0.00075390865          83.179634       0.0310431019         34.0303498      0.00083513008         83.5886349       0.0826427792         63.6227903

