! Created Tue Feb 26 10:24:24 2019
# hz S ma R 50
! 4 Port Network Data from SP1.SP block
! freq  magS11  angS11  magS12  angS12  magS13  angS13  magS14  angS14  
!       magS21  angS21  magS22  angS22  magS23  angS23  magS24  angS24  
!       magS31  angS31  magS32  angS32  magS33  angS33  magS34  angS34  
!       magS41  angS41  magS42  angS42  magS43  angS43  magS44  angS44  
!     
                 0     0.00925699063   -3.19814292e-013    5.07076368e-008        0.519789815    2.40884136e-005    -1.6201711e-010    3.86884103e-008        0.480407031
                  5.07085009e-008        0.519781338       0.0321500969        -17.6731531    6.49193534e-008        0.521187974      0.00129712918         77.4613175
                  2.39417178e-005   -1.63001328e-010    6.49158003e-008          0.5212279      0.00887612902   -5.83388226e-013    4.85277629e-008        0.478661965
                   3.8689005e-008        0.480401459      0.00129711963         77.4630571    4.85265657e-008        0.478688545       0.0329218338        -17.2713079

          10000000      0.0103102086         5.32749132    1.00756865e-006         81.4542066      0.00129184708         77.4055857    7.85519666e-007         81.7315933
                  1.00756865e-006         81.4542065       0.0331095272        -16.8913789    1.30336013e-006         81.1494017      0.00253352946          76.056824
                    0.00129184708         77.4055851    1.30336013e-006         81.1494019       0.0103074647         5.39035669    1.00234693e-006         81.4717596
                  7.85519665e-007         81.7315932      0.00253352947         76.0568237    1.00234693e-006         81.4717596       0.0331112186        -16.9056226

          20000000      0.0110721457         8.93963595    1.94116066e-006         82.0147205      0.00260698707         79.4586584    1.51627114e-006         82.1622649
                   1.9411607e-006         82.0147158        0.034657941        -32.9854101     2.5056847e-006         81.8097379      0.00496309273         74.4082344
                    0.00260708855         79.4551395    2.50568483e-006         81.8097497       0.0110743408         9.10431169    1.93098528e-006          81.988768
                   1.5162712e-006         82.1622863      0.00496331924         74.4051536    1.93098526e-006           81.98878       0.0346853311        -33.0090605

          30000000      0.0116733678         12.8733124    2.86600109e-006         81.4812806      0.00394651967         79.5596669    2.23995759e-006         81.5450076
                  2.86600111e-006         81.4812799       0.0364546373        -48.2212576    3.69655756e-006         81.3314557      0.00732172931         71.2943645
                    0.00394650378          79.559307    3.69655762e-006         81.3314556       0.0116781965         13.0872362    2.85046367e-006         81.4242282
                  2.23995765e-006         81.5450076      0.00732173835         71.2941738    2.85046368e-006         81.4242289       0.0364544291        -48.2604936

          40000000      0.0123429315          16.332815    3.79140046e-006         80.5997586       0.0052876479         79.4696857    2.96358604e-006         80.6020033
                  3.79140049e-006         80.5997581       0.0386780789        -62.6732771    4.88786779e-006         80.4871213      0.00955708264         68.0233742
                    0.00528764478         79.4697001    4.88786775e-006         80.4871216       0.0123568321         16.5984253     3.7696768e-006          80.519751
                  2.96358599e-006         80.6020036      0.00955709653         68.0234206    3.76967675e-006         80.5197517       0.0386746879        -62.7256814

          50000000      0.0131048648         19.2627373    4.72340283e-006         79.5296378      0.00660248064         78.6193754    3.69177937e-006         79.4841896
                  4.72340284e-006         79.5296376       0.0412979493        -76.3297693    6.08738455e-006         79.4455676       0.0116247957         64.3507721
                    0.00660248166         78.6193653    6.08738455e-006         79.4455678       0.0131297323         19.5665723    4.69454014e-006         79.4332981
                  3.69177936e-006         79.4841901       0.0116248005         64.3507734    4.69454012e-006         79.4332985       0.0412924177        -76.3968553

          60000000      0.0139208086         21.7911798    5.66707692e-006         78.3181998      0.00790761954         77.7007731    4.42848431e-006         78.2352643
                  5.66707693e-006         78.3181998       0.0441428212        -89.4667538    7.30156117e-006         78.2585864       0.0135102848         60.7312586
                    0.00790761981         77.7007601    7.30156117e-006         78.2585864       0.0139578951         22.1226109    5.63005238e-006         78.2120543
                  4.42848432e-006         78.2352644       0.0135102838         60.7312549    5.63005237e-006         78.2120543        0.044135628         -89.548344

          70000000      0.0148023256         23.7295993    6.62418766e-006         76.9883052      0.00920382118         76.0847944     5.1750604e-006         76.8764024
                  6.62418767e-006         76.9883052       0.0472799589        -101.951782    8.53276241e-006         76.9509302       0.0152279691         56.8557782
                    0.00920382119         76.0847893    8.53276242e-006         76.9509302       0.0148521805         24.0816649    6.57802158e-006         76.8786442
                  5.17506041e-006         76.8764024       0.0152279692         56.8557753    6.57802159e-006         76.8786442       0.0472714162        -102.047582

          80000000      0.0157199632         25.3642566    7.59639168e-006         75.5467387       0.0104967845         74.4407245    5.93293153e-006         75.4130772
                  7.59639168e-006         75.5467387       0.0506054956        -113.900581    9.78308044e-006         75.5306921       0.0167488943         53.1406844
                     0.0104967843         74.4407228    9.78308044e-006         75.5306921       0.0157833994         25.7301325    7.54024101e-006         75.4395778
                  5.93293153e-006         75.4130772       0.0167488957         53.1406817    7.54024101e-006         75.4395778       0.0505964535        -114.009669

          90000000      0.0166747784         26.5695059    8.58533324e-006         73.9921375       0.0117859218         72.7794435    6.70350513e-006         73.8425328
                  8.58533325e-006         73.9921375       0.0540404421        -125.563363    1.10546336e-005         73.9972182        0.018076442         49.6063444
                      0.011785921         72.7794422    1.10546336e-005         73.9972182       0.0167521289         26.9445352    8.51851217e-006         73.8925962
                  6.70350512e-006         73.8425328       0.0180764424          49.606346    8.51851216e-006         73.8925962       0.0540321978        -125.684584

         100000000      0.0176532963         27.5552905    9.58882631e-006         72.3332032        0.013071805         71.1047484    7.48525809e-006         72.1725488
                  9.58882631e-006         72.3332032       0.0575872486        -136.790366    1.23446725e-005         72.3595196       0.0191996446         46.3072902
                     0.0130718044         71.1047461    1.23446725e-005         72.3595197       0.0177450681         27.9352899    9.51093299e-006         72.2457626
                  7.48525809e-006         72.1725488       0.0191996437         46.3072883      9.510933e-006         72.2457626       0.0575807945        -136.922069

         110000000       0.018644422         28.1732953    1.06049759e-005         70.5829898       0.0143527192         69.4192282    8.27714272e-006         70.4122601
                  1.06049759e-005         70.5829898       0.0612403942        -147.584338    1.36506614e-005         70.6250277       0.0201154385         43.2898601
                     0.0143527187         69.4192273    1.36506614e-005         70.6250278       0.0187513279         28.5559807    1.05154743e-005         70.5125062
                  8.27714272e-006         70.4122602       0.0201154376         43.2898592    1.05154743e-005         70.5125063       0.0612373099        -147.725527

         120000000      0.0196495252         28.6361187    1.16320075e-005         68.7290958       0.0156303783         67.7244276    9.07749279e-006          68.552685
                  1.16320075e-005         68.7290957       0.0648959126        -158.176445    1.49702681e-005         68.7918967       0.0208557329         40.5560639
                     0.0156303779         67.7244274    1.49702681e-005         68.7918967       0.0197713626          29.019106    1.15313911e-005         68.6769149
                  9.07749279e-006          68.552685       0.0208557319         40.5560638    1.15313911e-005         68.6769149       0.0648970364        -158.325139

         130000000      0.0206593169         28.8488665    1.26657663e-005          66.783969       0.0169041156         66.0249258    9.88335574e-006         66.6042999
                  1.26657662e-005          66.783969       0.0685548485         -168.50224    1.62985532e-005          66.870162       0.0214332874          38.158156
                     0.0169041153         66.0249259    1.62985532e-005          66.870162       0.0207958144         29.2315764    1.25545651e-005         66.7510311
                  9.88335575e-006         66.6042999       0.0214332864         38.1581566    1.25545651e-005         66.7510311       0.0685606995         -168.65646

         140000000      0.0216782669         28.9508899    1.36991517e-005         64.7607941        0.018174439         64.3208566    1.06894026e-005         64.5791168
                  1.36991517e-005         64.7607941       0.0720481161         -178.47809    1.76266142e-005          64.871501       0.0218591141         36.1375194
                     0.0181744387         64.3208569    1.76266142e-005          64.871501       0.0218295412         29.3320661    1.35781055e-005         64.7477433
                  1.06894026e-005         64.5791169       0.0218591133         36.1375206    1.35781055e-005         64.7477433       0.0720585688        -178.636215

         150000000      0.0226918288         28.8620473    1.47289932e-005         62.6701297       0.0194406487         62.6141905    1.14932234e-005         62.4865048
                  1.47289932e-005         62.6701297       0.0754512073         171.789726    1.89504178e-005         62.8057217       0.0221732674         34.4903745
                     0.0194406485         62.6141908    1.89504178e-005         62.8057217       0.0228578187         29.2416911    1.45989011e-005         62.6768664
                  1.14932234e-005         62.4865048       0.0221732667         34.4903761    1.45989012e-005         62.6768664       0.0754661475         171.629495

         160000000      0.0237108788         28.6919343    1.57496727e-005         60.5224823       0.0207033969         60.9048956    1.22905401e-005         60.3361282
                  1.57496727e-005         60.5224823       0.0787232095         162.282946    2.02627818e-005         60.6829935       0.0224085599         33.2568421
                     0.0207033967         60.9048959    2.02627818e-005         60.6829935       0.0238917349         29.0691034    1.56115339e-005         60.5482979
                  1.22905401e-005         60.3361282       0.0224085594         33.2568441    1.56115339e-005         60.5482979       0.0787421866           162.1224

         170000000      0.0247194947         28.3761714    1.67535252e-005         58.3363014       0.0219620282         59.1941818    1.30754793e-005         58.1461243
                  1.67535252e-005         58.3363014       0.0816457333         153.062074    2.15539112e-005         58.5215835       0.0225894221          32.467391
                     0.0219620281         59.1941821    2.15539112e-005         58.5215835       0.0249151699          28.751001    1.66085836e-005         58.3802417
                  1.30754793e-005         58.1461243       0.0225894217         32.4673932    1.66085836e-005         58.3802417       0.0816676965         152.902429

         180000000      0.0257308496           27.99922    1.77376245e-005         56.1198646       0.0232171554         57.4817884    1.38456867e-005         55.9242666
                  1.77376245e-005         56.1198646       0.0843574593          144.03374    2.28200591e-005         56.3297773       0.0227675346         32.0820375
                     0.0232171553         57.4817886    2.28200591e-005         56.3297773        0.025941439         28.3709982    1.75870897e-005         56.1805055
                  1.38456867e-005         55.9242666       0.0227675345         32.0820398    1.75870897e-005         56.1805055       0.0843811588         143.876697

         190000000       0.026731565         27.5109519    1.86969994e-005         53.8901504       0.0244682617         55.7692914    1.45973119e-005          53.687087
                  1.86969993e-005         53.8901504       0.0867641817         135.237658    2.40548847e-005         54.1245077       0.0229878291         32.0963022
                     0.0244682617         55.7692916    2.40548847e-005         54.1245077       0.0269569608         27.8798027     1.8542197e-005         53.9655846
                  1.45973119e-005         53.6870869       0.0229878292         32.0963044     1.8542197e-005         53.9655845       0.0867882016         135.084653

         200000000      0.0277329389          26.975604    1.96247376e-005         51.6611468       0.0257157901         54.0556457    1.53250027e-005         51.4485283
                  1.96247376e-005         51.6611469       0.0886705581         126.640541    2.52496087e-005         51.9197133       0.0232835292          32.487328
                     0.0257157901         54.0556459    2.52496087e-005         51.9197132       0.0279731738         27.3410261     1.9467166e-005         51.7493909
                  1.53250027e-005         51.4485282       0.0232835295           32.48733     1.9467166e-005         51.7493909       0.0886929555         126.492686

         210000000       0.028718092         26.3552939    2.05207554e-005         49.4451398       0.0269591935         52.3413677    1.60285455e-005         49.2206094
                  2.05207554e-005         49.4451398       0.0902106907         118.235115    2.64041379e-005         49.7276492       0.0237031526         33.1394307
                     0.0269591935         52.3413678    2.64041379e-005         49.7276491       0.0289730912         26.7175563    2.03617391e-005         49.5438881
                  1.60285455e-005         49.2206093       0.0237031531         33.1394323    2.03617391e-005         49.5438881       0.0902293761         118.093869

         220000000       0.029702271         25.6976733    2.13821561e-005         47.2551095       0.0281989703         50.6262717    1.67056251e-005         47.0159573
                  2.13821561e-005         47.2551096       0.0913150796         110.032964    2.75148117e-005         47.5612043        0.024288454         33.9668116
                     0.0281989703         50.6262718    2.75148117e-005         47.5612042       0.0299720212         26.0564459    2.12230124e-005         47.3616504
                  1.67056251e-005         47.0159573       0.0242884546         33.9668127    2.12230124e-005         47.3616504       0.0913276201         109.899764

         230000000      0.0306723151         24.9702503    2.22047635e-005          45.107837       0.0294346184         48.9114835    1.73529945e-005         44.8513211
                  2.22047635e-005         45.1078371       0.0917457394         102.003152    2.85763412e-005         45.4370305       0.0250606194         34.8870167
                     0.0294346184         48.9114835    2.85763412e-005         45.4370305       0.0309566727         25.3258057    2.20468986e-005          45.219369
                  1.73529945e-005         44.8513211       0.0250606201         34.8870173    2.20468986e-005          45.219369       0.0917497473         101.879089

         240000000       0.031640086         24.2128067    2.29919646e-005         43.0056558        0.030666553         47.1960935    1.79730226e-005         42.7289929
                  2.29919646e-005         43.0056559       0.0917393428         94.1236464    2.95930654e-005         43.3574407         0.02603541         35.7271886
                      0.030666553         47.1960935    2.95930653e-005         43.3574407       0.0319390102         24.5649404    2.28364099e-005         43.1193067
                  1.79730226e-005         42.7289929       0.0260354107         35.7271888    2.28364099e-005         43.1193066       0.0917323705         94.0104637

         250000000      0.0325918859         23.4001697    2.37446105e-005         40.9702111       0.0318942837         45.4808386    1.85662735e-005         40.6700271
                  2.37446105e-005         40.9702111       0.0910714709          86.479716    3.05660977e-005         41.3438434       0.0272374836         36.3988374
                     0.0318942837         45.4808386    3.05660977e-005         41.3438433       0.0329052552         23.7491852    2.35922844e-005         41.0824034
                  1.85662735e-005          40.670027       0.0272374843         36.3988372    2.35922844e-005         41.0824034       0.0910507079         86.3789512

         260000000      0.0335403236         22.5628134    2.44635075e-005          39.002985        0.033118224         43.7651315    1.91332053e-005         38.6762727
                  2.44635075e-005         39.0029851       0.0897643911         78.9723938    3.14964948e-005         39.3976772       0.0286431218         36.8145873
                      0.033118224         43.7651315    3.14964948e-005         39.3976772       0.0338680825         22.9085915    2.43151236e-005         39.1104923
                  1.91332053e-005         38.6762726       0.0286431224         36.8145868    2.43151236e-005         39.1104923       0.0897275334         78.8859136

         270000000      0.0344721362         21.6802555    2.51536219e-005         37.1075394       0.0343378968         42.0495651    1.96774219e-005         36.7514884
                  2.51536219e-005         37.1075394       0.0878971657         71.5921832    3.23905948e-005         37.5224479       0.0302271766         36.9011019
                     0.0343378969         42.0495651    3.23905948e-005         37.5224478       0.0348141707         22.0231036    2.50094961e-005         37.2072947
                  1.96774219e-005         36.7514884       0.0302271771         36.9011012    2.50094961e-005         37.2072947       0.0878421751         71.5222944

         280000000      0.0353996496         20.7769546    2.58220905e-005         35.3062249       0.0355537025         40.3336523    2.02042342e-005         34.9171836
                  2.58220905e-005         35.3062249        0.085197004         64.5173008    3.32575137e-005         35.7401603        0.032005001         36.6188175
                     0.0355537025         40.3336523    3.32575137e-005         35.7401603       0.0357558963         21.1168086    2.56821591e-005         35.3941356
                  2.02042342e-005         34.9171836       0.0320050013         36.6188167    2.56821591e-005         35.3941356        0.085121389          64.466596

