! Created Tue Feb 26 10:56:03 2019
# hz S ma R 50
! 4 Port Network Data from SP1.SP block
! freq  magS11  angS11  magS12  angS12  magS13  angS13  magS14  angS14  
!       magS21  angS21  magS22  angS22  magS23  angS23  magS24  angS24  
!       magS31  angS31  magS32  angS32  magS33  angS33  magS34  angS34  
!       magS41  angS41  magS42  angS42  magS43  angS43  magS44  angS44  
!     
                 0      0.0331152039        -20.8457403        0.967432531        -5.43174424      0.00126504208         70.0718087     0.000307938493         168.223465
                      0.967432535        -5.43174426       0.0326537929        -17.7520321     0.000308290356         168.233042      0.00127638594         69.8933189
                    0.00126500981         70.0809648     0.000308354638         168.234016        0.033114493        -20.8739579        0.967423766        -5.43435299
                   0.000307805544         168.220358      0.00127642623         69.8892372        0.967423763        -5.43435298       0.0327019672        -17.7638312

          10000000       0.033798986        -19.2884162        0.966553342        -6.52187331      0.00245614965         72.8843741     0.000445784794        -134.329538
                      0.966553342        -6.52187331       0.0330473896        -17.2736286     0.000445675428        -134.307139      0.00246575736         76.5512596
                    0.00245614942         72.8844056     0.000445689597         -134.30944       0.0338118067        -19.3027616         0.96654115        -6.52345867
                   0.000445800095        -134.332025      0.00246575589         76.5523561        0.966541151        -6.52345869       0.0330788986        -17.2846183

          20000000      0.0371961456        -36.7111243        0.965069054        -13.0154659      0.00481203925         67.2646068     0.000697445513        -127.873602
                      0.965069053        -13.0154659       0.0345790736        -33.5567588      0.00069748251        -127.878767      0.00483581267         75.0148893
                    0.00481204425         67.2644962     0.000697493766        -127.880351       0.0372172896         -36.737976        0.965058943        -13.0184681
                   0.000697456728        -127.875325      0.00483580666         75.0155265        0.965058944        -13.0184682       0.0346058017        -33.5861673

          30000000      0.0417694378        -51.6100317        0.963485608        -19.5019136      0.00710385577         60.1556977     0.000950476259        -124.578895
                      0.963485608        -19.5019136       0.0363867602        -48.9337206     0.000950465682        -124.604997      0.00714438692         72.1159153
                    0.00710385075         60.1557185     0.000950477491        -124.606237       0.0418024147        -51.6369268        0.963477433        -19.5064983
                   0.000950485394        -124.580139      0.00714439873         72.1162265        0.963477433        -19.5064983       0.0364065382        -48.9801439

          40000000      0.0473254205        -64.3027862        0.961560987        -25.9742212      0.00930755267         52.7700737      0.00122796235        -122.674654
                      0.961560987        -25.9742212       0.0386413615        -63.4994769      0.00122775076        -122.713852      0.00934494138         69.0766902
                    0.00930755639         52.7701062      0.00122775007         -122.71552       0.0473725696        -64.3236485        0.961554087        -25.9804258
                    0.00122796496        -122.675394      0.00934494415         69.0768708        0.961554087        -25.9804259       0.0386525481        -63.5623118

          50000000      0.0535564716         -75.210125         0.95930623        -32.4307625       0.0113536389         44.9224474      0.00153881588        -122.638351
                       0.95930623        -32.4307625       0.0412950674        -77.2343778      0.00153823308        -122.687449       0.0113959182         65.6302006
                     0.0113536412         44.9224518      0.00153823316        -122.687946       0.0536185737        -75.2220129        0.959300358        -32.4385954
                    0.00153881488         -122.63869       0.0113959259          65.630285        0.959300358        -32.4385954       0.0412960405        -77.3130747

          60000000      0.0600906342        -84.9015995        0.956795056        -38.8714322       0.0132499846         36.9644263      0.00189646531        -123.800078
                      0.956795056        -38.8714322       0.0441722435         -90.431827      0.00189539297        -123.851057       0.0132869358         62.2297633
                     0.0132499847         36.9644225      0.00189539215        -123.851069       0.0601675579        -84.9036563        0.956790108        -38.8808908
                    0.00189646473        -123.800137       0.0132869392         62.2297664        0.956790108        -38.8808908       0.0441642646        -90.5257651

          70000000      0.0668278421        -93.6372709        0.954035346        -45.2956139       0.0149335141         28.5521375      0.00230038708        -126.719276
                      0.954035346        -45.2956139       0.0473214463        -103.001829      0.00229875831        -126.768099       0.0150330889         58.5528514
                     0.0149335102         28.5521197       0.0022987588        -126.768067       0.0669184937        -93.6298562         0.95403037        -45.3066869
                    0.00230038683        -126.719204       0.0150330889          58.552848         0.95403037        -45.3066869       0.0473128898        -103.112749

          80000000      0.0735489871        -101.655265        0.951068665        -51.7002027       0.0164141056         20.0237563      0.00275271095        -130.664344
                      0.951068665        -51.7002027       0.0506463842        -115.027844      0.00275048249        -130.709568       0.0166085676         55.0137364
                     0.0164141022         20.0237374       0.0027504816        -130.709521       0.0736524049        -101.638981        0.951063206        -51.7128928
                    0.00275271054        -130.664316       0.0166085672         55.0137184        0.951063206        -51.7128928       0.0506398044        -115.155002

          90000000      0.0801016088        -109.310999        0.947975119        -58.0892525       0.0176891237         11.3859226      0.00325263396        -135.461361
                      0.947975119        -58.0892525       0.0540768374        -126.748745      0.00324980595        -135.502402       0.0180170385         51.6235726
                     0.0176891237         11.3859201      0.00324980607        -135.502398        0.080216544         -109.28626        0.947969369        -58.1035421
                    0.00325263429        -135.461349       0.0180170384         51.6235703        0.947969369        -58.1035421       0.0540727976         -126.89043

         100000000      0.0863869194        -116.553458        0.944746732        -64.4571337       0.0187412494         2.60297074      0.00379251811        -141.004168
                      0.944746732        -64.4571337       0.0576151171        -138.014534      0.00378916051        -141.041297        0.019247041         48.4294833
                     0.0187412495         2.60296967      0.00378916049        -141.041293       0.0865121744        -116.520931         0.94474106        -64.4729859
                     0.0037925181        -141.004164       0.0192470407         48.4294816         0.94474106        -64.4729859       0.0576134583        -138.168265

         110000000      0.0923255464        -123.534503        0.941443432        -70.7998417        0.019555585        -6.34714899      0.00436285694        -147.157009
                      0.941443432        -70.7998417       0.0611813639        -148.831588      0.00435898821        -147.191509       0.0202947813         45.4582688
                     0.0195555879        -6.34713824      0.00435899716        -147.191622       0.0924591409        -123.495054        0.941437689         -70.817263
                    0.00436285659         -147.15701       0.0202947739         45.4582857        0.941437689         -70.817263        0.061184137        -148.995753

         120000000      0.0977903828        -130.348936        0.938118478        -77.1282506       0.0201550451        -15.4949573      0.00496035229        -153.797638
                      0.938118478        -77.1282506       0.0647607765        -159.435718      0.00495608406        -153.829752       0.0211860909         42.7123575
                     0.0201550549        -15.4949317      0.00495609109        -153.830091       0.0979300935        -130.303164        0.938112827        -77.1472309
                    0.00496035139        -153.797644       0.0211860752         42.7124053        0.938112827        -77.1472309       0.0647695806        -159.607996

         130000000       0.102642586        -137.035168        0.934795011        -83.4403147       0.0205430696        -24.8934238      0.00557673892        -160.821938
                      0.934795011        -83.4403147       0.0683471133        -169.765885       0.0055722087        -160.852231        0.021929167         40.2318656
                     0.0205430898         -24.893387      0.00557220149        -160.852709         0.10278583        -136.983675         0.93478966        -83.4608454
                    0.00557673747        -160.821949       0.0219291436         40.2319546         0.93478966        -83.4608454       0.0683630407        -169.943807

         140000000       0.106880916        -143.567641         0.93150308        -89.7288154       0.0207222394        -34.5961454      0.00620047225        -168.152209
                       0.93150308        -89.7288154       0.0717649615        -179.742796      0.00619584121        -168.181418       0.0225281998         38.0471617
                     0.0207222718        -34.5961039      0.00619581553        -168.181936        0.107024796        -143.511155        0.931498269        -89.7508885
                    0.00620047035        -168.152225       0.0225281714         38.0472995        0.931498269        -89.7508885       0.0717881566        -179.924281

         150000000       0.110473674        -150.037291        0.928271215        -96.0027297       0.0207233381        -44.6381666      0.00682613932        -175.707892
                      0.928271215        -96.0027297       0.0750884436            170.528      0.00682157531         -175.73687         0.02301427         36.1433946
                     0.0207233827        -44.6381268       0.0068215318        -175.737367        0.110614585        -149.976427        0.928267244        -96.0263403
                    0.00682613707        -175.707913       0.0230142409         36.1435847        0.928267244        -96.0263403       0.0751189368         170.345264

         160000000       0.113294941        -156.446135        0.925126056        -102.263758       0.0205714039         -55.106881      0.00744519272         176.557945
                      0.925126056        -102.263758       0.0782742937         161.027534      0.00744087491         176.528295       0.0234098367         34.5532745
                     0.0205714595        -55.1068479      0.00744081634         176.527849         0.11342846        -156.381181        0.925123361        -102.288903
                    0.00744519019         176.557918        0.023409812         34.5535154        0.925123362        -102.288903       0.0783115999          160.84582

         170000000       0.115285489        -162.794654        0.922117565        -108.504302       0.0202876921        -66.0897907      0.00804506844         168.701199
                      0.922117565        -108.504302       0.0811004915         151.813645      0.00804117479         168.669938        0.023727265         33.3069894
                     0.0202877564         -66.089767      0.00804110457         168.669552        0.115406948         -162.72449        0.922116774           -108.531
                    0.00804506563         168.701167       0.0237272497         33.3072752        0.922116774           -108.531        0.081143525         151.634515

         180000000        0.11650723        -169.113616        0.919233887        -114.735057       0.0199108376        -77.6249332      0.00862265134         160.763111
                      0.919233887        -114.735057       0.0837060435         142.795776      0.00861937518         160.729276       0.0240050201         32.3728157
                     0.0199109081        -77.6249197      0.00861929675         160.728949        0.116620869        -169.035376        0.919235046        -114.763379
                    0.00862264819         160.763074       0.0240050185         32.3731365        0.919235046        -114.763379       0.0837530159         142.621262

         190000000       0.116848494        -175.428951        0.916500397        -120.956296       0.0194381842        -89.5441478      0.00916941799          152.80208
                      0.916500396        -120.956296       0.0859947322         134.013286      0.00916691613         152.764504       0.0242752934         31.7660073
                     0.0194382584        -89.5441441      0.00916683264         152.764231        0.116959557        -175.349967        0.916502365        -120.986206
                    0.00916941441         152.802038       0.0242753087         31.7663503        0.916502365        -120.986206       0.0860434339         133.845229

         200000000       0.116272247         178.286737        0.913959616         -127.16479       0.0193185053        -102.188168      0.00968431254         144.820371
                      0.913959615         -127.16479       0.0877710596         125.431031      0.00968272539         144.778054       0.0245602889         31.4961202
                     0.0193185808        -102.188171       0.0096826397         144.777829        0.116368264         178.363625        0.913963321        -127.196248
                    0.00968430842         144.820326       0.0245603228         31.4964709        0.913963321        -127.196248       0.0878190563         125.270887

         210000000       0.114873676         171.991532         0.91157906        -133.367064       0.0190921461        -115.899093       0.0101530398         136.841501
                      0.911579059        -133.367064       0.0891687038         117.045163       0.0101524684         136.793314       0.0249000431         31.4953291
                     0.0190922206        -115.899098        0.010152383          136.79313        0.114948737         172.066386        0.911585135        -133.400095
                     0.0101530351         136.841454       0.0249000955         31.4956724        0.911585135        -133.400095       0.0892131831         116.894697

         220000000       0.112599994         165.660199        0.909361344        -139.565671       0.0190314509        -130.038185       0.0105768708         128.923254
                      0.909361344        -139.565671       0.0901177707         108.868024       0.0105773886         128.868046       0.0253334102         31.7321259
                     0.0190315226        -130.038188       0.0105773055         128.867898        0.112650475           165.7324        0.909370146        -139.600305
                     0.0105768654         128.923206       0.0253334794         31.7324477        0.909370146        -139.600305        0.090155465          108.72896

         230000000       0.109358335         159.303215         0.90735363        -145.756857       0.0192131917        -144.589851       0.0109460057         121.094003
                       0.90735363        -145.756857       0.0903819876         100.866783       0.0109476466         121.030545       0.0258844572         32.1764853
                      0.019213259        -144.589851       0.0109475677         121.030428        0.109381346         159.371712        0.907365378        -145.793125
                     0.0109459998         121.093956       0.0258845403         32.1767737        0.907365378        -145.793125       0.0904096208         100.740526

         240000000       0.105377221         152.914278        0.905482945        -151.948394       0.0196713359        -159.278497       0.0112669146         113.364863
                      0.905482945        -151.948393       0.0901994516         93.0243147        0.011269646         113.291874       0.0265791083         32.7007718
                     0.0196713975        -159.278493       0.0112695727         113.291783        0.105370228         152.977171        0.905497729        -151.986327
                     0.0112669082         113.364819       0.0265792009         32.7010186        0.905497728        -151.986327       0.0902136257         92.9129653

         250000000       0.100473888         146.392631        0.903780073        -158.139951       0.0204523926        -173.861887       0.0115358473         105.786188
                      0.903780073        -158.139951       0.0893448348         85.4267735       0.0115395768         105.702337       0.0274570601         33.2423994
                     0.0204524474         -173.86188       0.0115395103          105.70227        0.100434263         146.447801        0.903797921         -158.17959
                     0.0115358405         105.786148       0.0274571571         33.2426005        0.903797921         -158.17959       0.0893418146         85.3322697

         260000000      0.0947842004         139.793363        0.902223623        -164.332159       0.0215395941         171.897988       0.0117515643         98.3717517
                      0.902223623        -164.332159       0.0878456467          77.976557         0.01175612         98.2756728       0.0285135207         33.7145632
                     0.0215396416         171.897996       0.0117560612         98.2756248       0.0947101805         139.837805        0.902244417        -164.373538
                     0.0117515574         98.3717165       0.0285136169         33.7147186        0.902244416        -164.373538       0.0878222071         77.9012851

         270000000      0.0884347242         133.114316        0.900774209        -170.526594       0.0228968854         158.180568       0.0119202491         91.1401357
                      0.900774209        -170.526594        0.085783958         70.6679225       0.0119253663         91.0305164       0.0297438664         34.0253831
                     0.0228969252         158.180576        0.011925316          91.030485       0.0883252218         133.143871        0.900797693        -170.569745
                     0.0119202425         91.1401063       0.0297439566         34.0254966        0.900797693        -170.569745       0.0857371285         70.6148597

         280000000      0.0812108319         126.085666        0.899455633        -176.725945       0.0245283098         145.100262       0.0120447826         84.1658919
                      0.899455633        -176.725945       0.0828862426         63.6849926       0.0120501115         84.0414439        0.031182716         34.1062767
                     0.0245283417         145.100268       0.0120500703         84.0414263       0.0810644949         126.094811        0.899481519        -176.770912
                     0.0120447766         84.1658688       0.0311827956          34.106354        0.899481519        -176.770912       0.0828129069         63.6575833

