! Created Tue Feb 26 11:18:44 2019
# hz S ma R 50
! 4 Port Network Data from SP1.SP block
! freq  magS11  angS11  magS12  angS12  magS13  angS13  magS14  angS14  
!       magS21  angS21  magS22  angS22  magS23  angS23  magS24  angS24  
!       magS31  angS31  magS32  angS32  magS33  angS33  magS34  angS34  
!       magS41  angS41  magS42  angS42  magS43  angS43  magS44  angS44  
!     
                 0      0.0246214041        -24.3493627    6.08860842e-006        -120.240029      0.00127033094         68.4792091    1.22600084e-005        -172.319239
                  6.08859169e-006        -120.239657       0.0321138061        -18.0610722    4.02479439e-006        -143.654901      0.00122297166         78.3521493
                    0.00127034001          68.477039    4.02552109e-006        -143.664174       0.0245335786        -24.4692164    3.00523055e-006        -96.8158013
                  1.22599954e-005        -172.319226      0.00122296091         78.3562163    3.00521532e-006         -96.806218       0.0329041234        -17.6507772

          10000000      0.0250228572        -22.0599164    6.99106155e-005        -104.993959      0.00245556899         75.4267401    8.51535216e-005         -104.57023
                   6.9910613e-005        -104.993958       0.0330620458        -17.2636267    5.41578492e-005        -103.062214      0.00245975079         76.5262392
                    0.00245556903         75.4267308    5.41578525e-005        -103.062215       0.0250390519        -22.1656638     6.7278904e-005        -103.259641
                  8.51535249e-005         -104.57023      0.00245974929         76.5273384     6.7278906e-005        -103.259641       0.0330838317         -17.280533

          20000000      0.0282084652        -41.3122981     0.000135316481         -108.12341      0.00475909396         69.2376388     0.000164912276        -107.953423
                   0.000135316457        -108.123418       0.0345971466        -33.5513509     0.000105207941         -107.15526      0.00482300699         74.9965902
                    0.00475929056         69.2438449     0.000105207928        -107.155252       0.0282769057        -41.4525474     0.000130509258        -107.212232
                   0.000164912253        -107.953412      0.00482323696         74.9939008     0.000130509281        -107.212233       0.0346437557        -33.5795075

          30000000      0.0328369119        -56.8339665     0.000200245251        -113.139752      0.00697932775         61.7609097     0.000243956705        -112.942357
                   0.000200245244         -113.13975        0.036408149        -48.9265529     0.000155810744        -112.530772       0.0071265553         72.0923128
                    0.00697936141         61.7609282     0.000155810751        -112.530772       0.0329366479        -57.0297276     0.000193268908        -112.492741
                   0.000243956713        -112.942357      0.00712657151         72.0924265     0.000193268914        -112.492743       0.0364241928        -48.9734997

          40000000      0.0383454966        -69.3879471     0.000265104898         -118.68382      0.00908997322         53.9026217     0.000323045095         -118.41646
                   0.000265104896        -118.683819       0.0386659127        -63.4874793     0.000206329236        -118.268442      0.00932152287          69.051329
                    0.00908994759         53.9026982     0.000206329239        -118.268444       0.0384881466        -69.5830027     0.000256020908        -118.160052
                   0.000323045098        -118.416461      0.00932154927         69.0515532     0.000256020912        -118.160052       0.0386745268        -63.5495895

          50000000      0.0443898463        -79.7769148     0.000330183631        -124.474042       0.0110676967         45.8551093     0.000402633423        -124.132876
                   0.000330183628        -124.474042       0.0413225935        -77.2157613     0.000257005576         -124.18301       0.0113671602         65.6021745
                     0.0110676924         45.8551392     0.000257005578        -124.183011       0.0445711633        -79.9627738     0.000319079967         -124.02199
                   0.000402633425        -124.132877       0.0113671763         65.6022506     0.000319079969         -124.02199       0.0413227468        -77.2931806

          60000000      0.0506640594        -88.8350231     0.000395765356        -130.423137       0.0128908095         37.6807013     0.000483121694        -130.016982
                   0.000395765356        -130.423137        0.044201928        -90.4052105     0.000308067866        -130.220953       0.0132531355         62.1986662
                     0.0128908091         37.6806876     0.000308067867        -130.220954       0.0508769166        -89.0080981      0.00038273095        -130.021647
                   0.000483121694        -130.016982       0.0132531391         62.1986734      0.00038273095        -130.021648       0.0441941932        -90.4964421

          70000000      0.0570434362        -96.8742883     0.000461984952        -136.489138       0.0145345735         29.3855184     0.000564669003        -136.034187
                   0.000461984952        -136.489138       0.0473520374         -102.96665     0.000359617916        -136.356297       0.0149946187         58.5175223
                      0.014534573         29.3855168     0.000359617916        -136.356297       0.0572788088        -97.0341646     0.000447094197        -136.131396
                   0.000564669003        -136.034187       0.0149946185         58.5175173     0.000447094198        -136.131396       0.0473442061        -103.073002

          80000000      0.0633891812        -104.211923     0.000528918405        -142.654883       0.0159815287         20.9737402     0.000647345919         -142.16852
                   0.000528918404        -142.654883       0.0506762812        -114.984143     0.000411714662        -142.578905       0.0165657725          54.973963
                     0.0159815293         20.9737469     0.000411714661        -142.578905       0.0636378279        -104.358443     0.000512224713         -142.33989
                   0.000647345919         -142.16852        0.016565772         54.9739597     0.000512224714         -142.33989       0.0506702363        -115.104803

          90000000      0.0695513131        -111.219248     0.000596688485        -148.925397       0.0172294858         12.4512827     0.000731287564        -148.424858
                   0.000596688485        -148.925397       0.0541041249        -126.696895      0.00046445472        -148.897465       0.0179702847         51.5791262
                     0.0172294852         12.4512834      0.00046445472        -148.897465       0.0698042578        -111.351509     0.000578224413        -148.654307
                   0.000731287564        -148.424858        0.017970284         51.5791292     0.000578224413        -148.654307       0.0540997949        -126.830266

         100000000      0.0754741024        -117.846492     0.000665097731        -155.283299       0.0182601271         3.78461439     0.000816191178        -154.783942
                   0.000665097731        -155.283299       0.0576378593        -137.955419     0.000517688806        -155.296948       0.0191966516         48.3801531
                     0.0182601274          3.7846127     0.000517688806        -155.296948       0.0757219563        -117.964007     0.000644876371        -155.058098
                   0.000816191178        -154.783942       0.0191966514         48.3801512     0.000644876371        -155.058098       0.0576344108          -138.0993

         110000000      0.0810736968        -124.220693      0.00073401004        -161.721566       0.0190608219        -5.04252792     0.000901829131        -161.237116
                    0.00073401004        -161.721566       0.0611959035        -148.765184     0.000571307181        -161.771857       0.0202410154         45.4052757
                     0.0190608217        -5.04252954     0.000571307181        -161.771857        0.081308058        -124.325833     0.000712012261        -161.544014
                   0.000901829131        -161.237116       0.0202410152         45.4052743     0.000712012261        -161.544014       0.0611948461         -148.91881

         120000000      0.0862636769        -130.463516     0.000803319842        -168.247806       0.0196502822        -14.0680938     0.000988033092        -167.790562
                   0.000803319843        -168.247806       0.0647664346        -159.364145     0.000625238422        -168.331197       0.0211293107          42.654421
                     0.0196502819        -14.0680947     0.000625238422        -168.331197       0.0864742236         -130.55388     0.000779520482        -168.119476
                   0.000988033092        -167.790562       0.0211293105         42.6544199     0.000779520482        -168.119476       0.0647687655         -159.52534

         130000000        0.09090793        -136.584154     0.000872761262        -174.851534       0.0200305345        -23.3446588      0.00107441239        -174.431221
                   0.000872761262        -174.851534       0.0683427514        -169.690899     0.000679279054        -174.965351       0.0218695722         40.1683392
                     0.0200305341        -23.3446591     0.000679279054        -174.965351       0.0910845142        -136.657912     0.000847114861        -174.773153
                    0.00107441239        -174.431221       0.0218695719         40.1683384     0.000847114861        -174.773153       0.0683491017        -169.857577

         140000000      0.0950238481        -142.569995     0.000941882597         178.489228       0.0202018418         -32.921487      0.00116030942         178.865172
                   0.000941882598         178.489228        0.071749453        -179.665806     0.000733076471         178.346854       0.0224658488         37.9777095
                     0.0202018414        -32.9214868     0.000733076471         178.346854       0.0951567334        -142.625618     0.000914321212         178.517578
                    0.00116030942         178.865172       0.0224658485         37.9777088     0.000914321211         178.517578       0.0717596504        -179.836335

         150000000      0.0985897192        -148.492249      0.00101048715         171.772932       0.0201941198        -42.8335625      0.00124545268         172.099054
                    0.00101048715         171.772932       0.0750606949         170.605631     0.000786479156         171.603332       0.0229491615         36.0678443
                     0.0201941195         -42.833562     0.000786479156         171.603332        0.098669554        -148.528227     0.000980936945         171.752148
                    0.00124545268         172.099054       0.0229491612         36.0678438     0.000980936945         171.752148       0.0750745763         170.433066

         160000000       0.101481914        -154.364768      0.00107822787         165.010606       0.0200294993        -53.1623013        0.001329356         165.283884
                    0.00107822787         165.010606       0.0782334661         161.104534      0.00083921906         164.814912       0.0233418556         34.4716807
                     0.0200294991        -53.1623008     0.000839219059         164.814912        0.101499912        -154.379628      0.00104660708         164.942746
                      0.001329356         165.283884       0.0233418553         34.4716803      0.00104660708         164.942746       0.0782504838         160.931724

         170000000       0.103656394        -160.163556      0.00114465641         158.226818       0.0197293512        -63.9797608      0.00141137641          158.44605
                    0.00114465641         158.226818       0.0810462133         151.888975     0.000890946032         158.005897       0.0236561536         33.2195605
                     0.0197293511        -63.9797603     0.000890946032         158.005897        0.103604611        -160.155806      0.00111087144         158.114631
                    0.00141137641          158.44605       0.0236561533         33.2195603      0.00111087144         158.114631       0.0810653469         151.717079

         180000000       0.105177887        -165.930689      0.00120958877         151.421945       0.0193589819         -75.282392      0.00149128143         151.587489
                    0.00120958877         151.421945       0.0836381399         142.868238     0.000941517606         151.176265       0.0239304621         32.2799302
                     0.0193589819        -75.2823916     0.000941517606         151.176265        0.105049089         -165.89877        0.001173556         151.268805
                    0.00149128143         151.587489       0.0239304617         32.2799301        0.001173556         151.268805       0.0836578439         142.698956

         190000000       0.105947781        -171.685586      0.00127273765         144.611175       0.0190094733        -87.2885916      0.00156867721         144.725651
                    0.00127273765         144.611175       0.0859133352         134.081947     0.000990711755           144.3412       0.0241968465         31.6683506
                     0.0190094733        -87.2885913     0.000990711755           144.3412        0.105735618        -171.627782      0.00123437801         144.421457
                    0.00156867721         144.725651       0.0241968462         31.6683506      0.00123437801         144.421457         0.08593191         133.916737

         200000000       0.105900833         -177.39575       0.0013337536         137.814917       0.0186575388        -100.163758      0.00164306389          137.88233
                     0.0013337536         137.814917       0.0876768305         125.495094      0.00103825488         137.521064       0.0244773624          31.394694
                     0.0186575389        -100.163757      0.00103825488         137.521064        0.105600204        -177.310049      0.00129298754          137.59358
                    0.00164306389          137.88233       0.0244773621         31.3946942      0.00129298754          137.59358       0.0876922622         125.335029

         210000000       0.105157484          176.90796      0.00139261585         131.037084       0.0183755359        -113.703462      0.00171444522         131.062605
                    0.00139261585         131.037084       0.0890626296         117.103742      0.00108413057         130.719415       0.0248120373         31.3913574
                     0.0183755359        -113.703462      0.00108413057         130.719415        0.104764304         177.023626      0.00134938719          130.78936
                    0.00171444522         131.062605        0.024812037         31.3913577      0.00134938719          130.78936       0.0890726394         116.950302

         220000000       0.103641114         171.200691      0.00144919992         124.290354       0.0182567711        -127.856437      0.00178266317         124.281401
                    0.00144919992         124.290354       0.0900011207         108.920315      0.00112824519          123.94902       0.0252396636         31.6272148
                     0.0182567712        -127.856437      0.00112824519          123.94902        0.103152368         171.348706      0.00140347285         124.022363
                    0.00178266317         124.281401       0.0252396634         31.6272152      0.00140347285         124.022363       0.0900030775         108.774977

         230000000       0.101273852         165.514684      0.00150335595         117.594681       0.0183699795        -142.511486      0.00184748903         117.560028
                    0.00150335595         117.594681       0.0902562678         100.912032      0.00117048171         117.229785       0.0257842403         32.0725159
                     0.0183699795        -142.511486      0.00117048171         117.229785        0.100688065         165.698167      0.00145510448         117.312932
                    0.00184748903         117.560028       0.0257842401         32.0725163      0.00145510448         117.312932       0.0902476165         100.775917

         240000000      0.0982653173         159.838575      0.00155527119         110.946343       0.0187559201        -157.363523       0.0019092335         110.894907
                    0.00155527119         110.946343       0.0900663678         93.0616859      0.00121097839         110.557454       0.0264718325         32.5994848
                     0.0187559201        -157.363523      0.00121097839         110.557454       0.0975823781         160.060681      0.00150450292         110.656869
                     0.0019092335         110.894907       0.0264718323         32.5994852      0.00150450292         110.656869       0.0900444944         92.9366463

         250000000      0.0944237697         154.096425      0.00160507555         104.364399       0.0194657739        -172.150111      0.00196809669         104.308855
                    0.00160507555         104.364399       0.0892062705         85.4555775      0.00124984965         103.951569       0.0273421781          33.145678
                     0.0194657739        -172.150111      0.00124984965         103.951569       0.0936441886         154.361075      0.00155183705         104.074645
                    0.00196809669         104.308855       0.0273421779         33.1456784      0.00155183705         104.074645       0.0891682083         85.3432823

         260000000      0.0898728482         148.361073      0.00165288943         97.8523473       0.0204855689         173.398017      0.00202424889         97.8044029
                    0.00165288943         97.8523473        0.087703579         77.9958935      0.00128717549         97.4151037       0.0283906027         33.6238765
                     0.0204855689         173.398017      0.00128717549         97.4151037       0.0889993238         148.673299      0.00159724389         97.5686941
                    0.00202424889         97.8044029       0.0283906026         33.6238769      0.00159724389         97.5686941       0.0876469424         77.8983928

         270000000      0.0847498428         142.646959      0.00169901671          91.410348       0.0217814722         159.484719      0.00207814369         91.3814755
                    0.00169901671          91.410348       0.0856404533         70.6768083       0.0013231802         90.9479805       0.0296126523         33.9416714
                     0.0217814722         159.484719       0.0013231802         90.9479805       0.0837868666         143.012713      0.00164105514         91.1383787
                    0.00207814369         91.3814755       0.0296126523         33.9416717      0.00164105514         91.1383787       0.0855631286         70.5967238

         280000000      0.0787539824         136.751877      0.00174398941         85.0565032       0.0233575248         146.241428      0.00213059512         85.0635098
                    0.00174398941         85.0565032       0.0827432417          63.682503      0.00135831264         84.5689967       0.0310431019         34.0303496
                     0.0233575248         146.241428      0.00135831264         84.5689966       0.0777048896          137.17843      0.00168387986         84.8035054
                    0.00213059512         85.0635098       0.0310431019         34.0303498      0.00168387986         84.8035054       0.0826427792         63.6227903

