! Created Tue Feb 26 09:56:07 2019
# hz S ma R 50
! 4 Port Network Data from SP1.SP block
! freq  magS11  angS11  magS12  angS12  magS13  angS13  magS14  angS14  
!       magS21  angS21  magS22  angS22  magS23  angS23  magS24  angS24  
!       magS31  angS31  magS32  angS32  magS33  angS33  magS34  angS34  
!       magS41  angS41  magS42  angS42  magS43  angS43  magS44  angS44  
!     
                 0      0.0330275722        -20.6134776        0.967422526        -5.47916899      0.00134164783         70.2813154     0.000328047565        -176.699111
                      0.967422531        -5.47916901       0.0326912388        -17.3708996      0.00032869733        -176.714387      0.00135255979         69.5095242
                    0.00134161688         70.2898997     0.000328738197        -176.715847       0.0330294012        -20.6379773        0.967413403         -5.4817401
                   0.000327890486        -176.695235      0.00135260976         69.5037166        0.967413399        -5.48174008       0.0327192521        -17.3819601

          10000000      0.0337167109        -19.0589627        0.966543155         -6.5692802      0.00253280883         72.8626781     0.000524587663        -130.349718
                      0.966543155         -6.5692802       0.0330948368        -16.9011901     0.000524632764        -130.357833      0.00253952881         76.0822404
                    0.00253280883          72.862678     0.000524632743        -130.357831       0.0337321736        -19.0698847        0.966530583        -6.57082827
                   0.000524587647        -130.349717      0.00253952882         76.0822401        0.966530583        -6.57082827       0.0331062731         -16.909645

          20000000      0.0370317252        -36.4550197        0.965012644        -13.1052275      0.00495549933         67.5911662     0.000859093586        -124.385392
                      0.965012644        -13.1052275         0.03463985        -32.9904994     0.000859170309        -124.403521      0.00497588619         74.4275161
                    0.00495550441          67.591044     0.000859172358        -124.403559       0.0370533035        -36.4776366        0.965003007        -13.1081387
                   0.000859094902        -124.385439      0.00497587379          74.427641        0.965003007        -13.1081387        0.034647351        -33.0150806

          30000000      0.0414732994        -51.4326119        0.963408775        -19.6339893      0.00730165391          60.719562      0.00119685256        -122.390275
                      0.963408775        -19.6339893        0.036433218        -48.2279832      0.00119682449        -122.415075      0.00733952479         71.3192298
                     0.0073016493         60.7195754      0.00119682829        -122.415101       0.0415037515        -51.4543894        0.963401404        -19.6384766
                    0.00119685341        -122.390237      0.00733952906         71.3192316        0.963401404        -19.6384766       0.0364367491        -48.2667721

          40000000      0.0468692182         -64.266947        0.961479039         -26.150092      0.00954454665         53.5372163      0.00155969836         -121.94458
                      0.961479039         -26.150092        0.038653452        -62.6847286      0.00155948831        -121.973834      0.00958042911         68.0505467
                    0.00954455059         53.5372426      0.00155948458        -121.974549       0.0469117157        -64.2836982        0.961472828        -26.1561807
                    0.00155969816        -121.944534      0.00958041947         68.0505485        0.961472828        -26.1561807       0.0386526315        -62.7379127

          50000000      0.0529347209        -75.3569162        0.959228349        -32.6519145       0.0116092822         45.8813702      0.00195359719        -123.106868
                      0.959228349        -32.6519145       0.0412702703        -76.3477734      0.00195308051        -123.141507       0.0116534272         64.3811627
                     0.0116092845         45.8813719      0.00195308095        -123.141616       0.0529900375        -75.3660217        0.959222693        -32.6596052
                    0.00195359654        -123.106843       0.0116534236         64.3811715        0.959222693        -32.6596052       0.0412655538         -76.416153

          60000000      0.0593070091        -85.2548369        0.956728524        -39.1389092       0.0135013736         38.0977111      0.00239240163        -125.223258
                      0.956728524        -39.1389092       0.0441128725        -89.4927333      0.00239146159        -125.259622       0.0135438839         60.7653012
                     0.0135013735         38.0977068      0.00239146194        -125.259564        0.059375186        -85.2552964        0.956723036        -39.1481933
                    0.00239240221        -125.223242       0.0135438827         60.7652935        0.956723036        -39.1481933       0.0441054158        -89.5770221

          70000000       0.065900064        -94.2028031        0.953974918        -45.6074056       0.0151533534         29.8618789      0.00287681256        -128.710259
                      0.953974918        -45.6074056       0.0472489502        -101.986309      0.00287538404        -128.745975       0.0152661395         56.8946127
                     0.0151533493         29.8618619      0.00287538465        -128.745953       0.0659805597        -94.1946328        0.953969451        -45.6182766
                    0.00287681233        -128.710208       0.0152661398         56.8946113        0.953969451        -45.6182767       0.0472396359        -102.086661

          80000000      0.0724991537        -102.431712        0.951008493        -52.0560378       0.0165731143         21.4935001      0.00341013826        -132.996738
                      0.951008493        -52.0560378       0.0505749957        -113.943648      0.00340818546        -133.030517       0.0167912714         53.1845434
                     0.0165731108          21.493482       0.0034081839        -133.030493       0.0725913127        -102.415412        0.951002927        -52.0684828
                    0.00341013722        -132.996729       0.0167912731         53.1845262        0.951002927        -52.0684828       0.0505653364        -114.059225

          90000000      0.0789553002        -110.297619        0.947917013        -58.4897792       0.0177565124         12.9924921      0.00399289514         -137.96694
                      0.947917013        -58.4897792       0.0540123475        -125.614642      0.00399041099        -137.998015       0.0181226433         49.6554646
                     0.0177565124         12.9924897      0.00399041054        -137.998017       0.0790579755        -110.273658        0.947911309        -58.5037841
                    0.00399289494        -137.966934       0.0181226445          49.655461        0.947911309        -58.5037841       0.0540042713        -125.744188

         100000000      0.0851727373        -117.746188        0.944698333        -64.9031016       0.0186853262         4.31627193      0.00461820024        -143.557071
                      0.944698333        -64.9031016       0.0575634939         -136.84901      0.00461523087        -143.585314        0.019249338         46.3618951
                     0.0186853263         4.31627074      0.00461523103        -143.585306        0.085284739        -117.715347        0.944692527        -64.9186552
                     0.0046182004        -143.557063        0.019249337         46.3618935        0.944692527        -64.9186552       0.0575586691        -136.990602

         110000000      0.0910759262        -124.926004        0.941399557        -71.2894069        0.019346799        -4.56280644      0.00527760507        -149.614711
                      0.941399557        -71.2894069       0.0612246346        -147.650374      0.00527408299        -149.635826       0.0201683843         43.3487087
                      0.019346802        -4.56279607      0.00527409242        -149.635913       0.0911959084        -124.890096        0.941393518        -71.3064601
                     0.0052776049        -149.614709        0.020168376         43.3487255        0.941393518        -71.3064601       0.0612251979        -147.802168

         120000000      0.0965375733        -131.936162        0.938073431        -77.6618098       0.0197654578        -13.6924959      0.00596741925        -156.133182
                      0.938073431        -77.6618098       0.0648888603        -158.247753      0.00596347126        -156.149675       0.0209115757         40.6203925
                      0.019765468        -13.6924713      0.00596347936        -156.149953       0.0966637107        -131.895372        0.938067314        -77.6803596
                    0.00596741852        -156.133186       0.0209115586         40.6204404        0.938067314        -77.6803595       0.0648962561         -158.40763

         130000000       0.101420674        -138.815442        0.934743933        -84.0181964       0.0199482838         -23.141804      0.00667873496         -163.01913
                      0.934743933        -84.0181964       0.0685576778        -168.577068      0.00667449427         -163.03275       0.0214918573         38.2285554
                     0.0199483046        -23.1417692       0.0066744885         -163.03315        0.101550704        -138.770097        0.934737935        -84.0382398
                    0.00667873366        -163.019139       0.0214918321         38.2286455        0.934737935        -84.0382398       0.0685728966        -168.742672

         140000000       0.105723839        -145.537309        0.931441781        -90.3512819       0.0199031306        -32.9856608      0.00739938464        -170.200191
                       0.93144178        -90.3512819       0.0720619895        -178.555033       0.0073949978        -170.212268       0.0219204066         36.2142342
                     0.0199031637        -32.9856223       0.0073949736        -170.212706        0.105855219        -145.487994        0.931436124        -90.3728161
                    0.00739938286        -170.200204        0.021920376         36.2143753        0.931436124         -90.372816        0.072085236        -178.724299

         150000000       0.109417276        -152.193272        0.928195554        -96.6699846       0.0196693883        -43.2877348      0.00812321918        -177.604636
                      0.928195554        -96.6699846       0.0754772594         171.712025      0.00811883688        -177.616289       0.0222373618         34.5734049
                     0.0196694335         -43.287699      0.00811879472        -177.616711        0.109546738        -152.140516        0.928190522        -96.6930087
                    0.00812321703        -177.604653       0.0222373303         34.5736016        0.928190522        -96.6930087        0.075508629         171.541393

         160000000       0.112374805        -158.785624        0.925031967        -102.975926       0.0192838099        -54.1716641      0.00884086918         174.812161
                      0.925031967        -102.975926       0.0787623227         162.205755      0.00883665066         174.799959       0.0224756738         33.3458605
                     0.0192838659        -54.1716356      0.00883659319         174.799578         0.11249826        -158.729679        0.925027977         -103.00044
                    0.00884086675         174.812139        0.022475647         33.3461123        0.925027977         -103.00044       0.0788014446         162.036027

         170000000       0.114536118        -165.314837        0.922001116        -109.261433       0.0187856359        -65.7652654      0.00953905605         167.103356
                      0.922001115        -109.261433       0.0816983195         152.986432      0.00953516135         167.089748        0.022659933         32.5617983
                     0.0187857004        -65.7652462      0.00953509197         167.089417         0.11464899        -165.254543        0.921998803        -109.287457
                    0.00953905333          167.10333       0.0226599163         32.5620992        0.921998803        -109.287457       0.0817440949         152.819225

         180000000       0.115962705        -171.810801        0.919091231        -115.537138       0.0182463391        -78.1491894       0.0102142304         159.307102
                      0.919091231        -115.537138        0.084423738         143.960843       0.0102108431         159.291289       0.0228418831         32.1809204
                     0.0182464097        -78.1491789       0.0102107653         159.291009        0.116069573         -171.74325        0.919090625        -115.564747
                     0.0102142273         159.307071       0.0228418815         32.1812595        0.919090625        -115.564747        0.084474692         143.798187

         190000000       0.116541516        -178.299952        0.916327906         -121.80323       0.0177437601        -91.4307542        0.010858233         151.463763
                      0.916327906         -121.80323       0.0868440688         135.168441       0.0108555123         151.444638       0.0230665687         32.1983276
                     0.0177438343        -91.4307493       0.0108554293         151.444405        0.116648344        -178.232439        0.916327805        -121.832389
                     0.0108582296         151.463728       0.0230665856         32.1986898        0.916327805        -121.832389       0.0868982859          135.01215

         200000000       0.116231643         175.245399        0.913754355        -128.056409       0.0173610232        -105.666024       0.0114588037          143.60203
                      0.913754354        -128.056409        0.088763433         126.575793       0.0114568529         143.578696       0.0233673324         32.5907887
                     0.0173610986         -105.66602       0.0114567675         143.578505        0.116326271         175.309942        0.913755677        -128.087076
                     0.0114587997         143.601992       0.0233673698         32.5911568        0.913755677        -128.087076       0.0888185614         126.427361

         210000000       0.115127339         168.785005         0.91133839         -134.30315       0.0171936767        -120.704983       0.0120159101         135.752652
                       0.91133839         -134.30315       0.0903156052         118.175719       0.0120148113         135.724278        0.023792646         33.2424593
                     0.0171937512        -120.704975       0.0120147261         135.724122        0.115204156         168.846607        0.911341766        -134.335349
                     0.0120159054         135.752612       0.0237927036         33.2428152        0.911341766        -134.335349       0.0903690318         118.036884

         220000000       0.113173059         162.293927        0.909083436        -140.545937       0.0173340562        -136.312075       0.0125240591         127.944217
                      0.909083436        -140.545937       0.0914307974          109.97972       0.0125238723         127.909907       0.0243842556          34.067366
                     0.0173341278        -136.312061       0.0125237894         127.909782        0.113228752         162.351955        0.909089226        -140.579695
                     0.0125240538         127.944177       0.0243843314         34.0676936        0.909089226        -140.579695       0.0914794588         109.852158

         230000000       0.110271187         155.782389        0.907037838        -146.780958       0.0178479174        -152.131527       0.0129726888         120.211406
                      0.907037837        -146.780958       0.0918707798         101.956799       0.0129734356         120.170235       0.0251633432         34.9831193
                     0.0178479844        -152.131506       0.0129733567         120.170137        0.110303159         155.835776        0.907046274        -146.816305
                     0.0129726829         120.211367       0.0251634333         34.9834062        0.907046273        -146.816305       0.0919115706         101.841873

         240000000       0.106645365         149.248294        0.905129565        -153.015982       0.0187474035        -167.670585       0.0133680559         112.566505
                      0.905129565        -153.015982       0.0918720203         94.0850062       0.0133696944          112.51751       0.0261454764         35.8174592
                     0.0187474645         -167.67056       0.0133696211         112.517436        0.106651367          149.29518         0.90514076        -153.052947
                     0.0133680495         112.566468       0.0261455757         35.8176983        0.905140759        -153.052947       0.0919017057         93.9846956

         250000000       0.102112371         142.591437        0.903390595        -159.250623       0.0200418863         177.417211       0.0137059278         105.055192
                      0.903390595        -159.250623       0.0912099075         86.4494597       0.0137083619         104.997406       0.0273552396         36.4821634
                     0.0200419405         177.417235       0.0137082954         104.997351        0.102090065         142.629754        0.903404611        -159.289242
                     0.0137059211         105.055158       0.0273553425         36.4823528        0.903404611        -159.289242       0.0912248987         86.3655516

         260000000      0.0967986544          135.87077        0.901801049        -165.485537       0.0216705893         163.329401       0.0139851476         97.6927179
                      0.901801049        -165.485537       0.0899066062         78.9513892       0.0139882074          97.625175       0.0287688051         36.8905325
                     0.0216706362         163.329422       0.0139881487         97.6251367       0.0967464814         135.897651        0.901817819        -165.525842
                     0.0139851408         97.6926884       0.0287689059         36.8906748        0.901817819        -165.525842       0.0899037447         78.8860612

         270000000      0.0908234356         129.089729        0.900322758        -171.722338       0.0235573697         150.126383       0.0142120047         90.4970609
                      0.900322758        -171.722338       0.0880410734         71.5813732       0.0142154363         90.4188635       0.0303608908           36.96984
                     0.0235574089           150.1264       0.0142153861         90.4188391       0.0907405036         129.101343        0.900342085        -171.764359
                     0.0142119981         90.4970364       0.0303609842         36.9699414        0.900342084        -171.764359       0.0880174401         71.5372564

         280000000      0.0839754057         121.988339        0.898980827        -177.963682       0.0256740749         137.799737       0.0143891326         83.5324974
                      0.898980827        -177.963682        0.085340617         64.5175548       0.0143926109         83.4427938       0.0321467324         36.6806046
                     0.0256741064         137.799748       0.0143925697         83.4427807        0.083860464         121.979653        0.899002506         -178.00746
                     0.0143891265         83.5324782        0.032146814         36.6806722        0.899002506         -178.00746       0.0852930156         64.4976787

