! Created Tue Feb 26 10:18:35 2019
# hz S ma R 50
! 4 Port Network Data from SP1.SP block
! freq  magS11  angS11  magS12  angS12  magS13  angS13  magS14  angS14  
!       magS21  angS21  magS22  angS22  magS23  angS23  magS24  angS24  
!       magS31  angS31  magS32  angS32  magS33  angS33  magS34  angS34  
!       magS41  angS41  magS42  angS42  magS43  angS43  magS44  angS44  
!     
                 0     0.00981432029   -1.97181674e-013    1.46367421e-008        -179.486937     3.5452186e-005   -6.32470489e-011    1.20233966e-008        -179.515436
                  1.46367274e-008         -179.48694       0.0321500969        -17.6731531    1.44395633e-008        -179.494093      0.00129712918         77.4613175
                  3.54635686e-005   -6.32617105e-011    1.44397361e-008        -179.494028      0.00950011589   -2.74287268e-013    1.21597724e-008        -179.516073
                   1.2023827e-008        -179.515444      0.00129711963         77.4630571    1.21703734e-008        -179.516357       0.0329218338        -17.2713079

          10000000      0.0102558964         4.79293214    3.51226662e-007        -98.5932163      0.00109759017         75.7436302     2.7565967e-007        -98.4983351
                  3.51226663e-007        -98.5932166       0.0331095272        -16.8913789    3.78238655e-007        -98.1065093      0.00253352946          76.056824
                    0.00109759018         75.7436295    3.78238651e-007        -98.1065092       0.0102559292         4.82462777    2.99793472e-007        -98.1007875
                   2.7565967e-007        -98.4983349      0.00253352947         76.0568237    2.99793472e-007        -98.1007881       0.0331112186        -16.9056226

          20000000      0.0109709265         8.11460794    6.73500307e-007        -98.1756553      0.00222048345         78.4509224    5.29357896e-007        -98.1291701
                  6.73500126e-007        -98.1756576        0.034657941        -32.9854101    7.26316977e-007        -97.8521256      0.00496309273         74.4082344
                     0.0022210005         78.4611293    7.26316941e-007        -97.8521218       0.0109778097         8.16574959    5.76279382e-007        -97.8627445
                   5.2935788e-007        -98.1291661      0.00496331924         74.4051536    5.76279543e-007        -97.8627399       0.0346853311        -33.0090605

          30000000      0.0115190158         11.8869786    9.91665634e-007        -98.6983586      0.00336491281         79.0006153    7.79680976e-007        -98.7019531
                  9.91665623e-007         -98.698358       0.0364546373        -48.2212576    1.07001639e-006        -98.4227222      0.00732172931         71.2943645
                    0.00336494086         79.0005285    1.07001639e-006        -98.4227219       0.0115208046         11.9383208    8.49134116e-007         -98.470304
                  7.79680976e-007        -98.7019529      0.00732173835         71.2941738    8.49134124e-007        -98.4703045       0.0364544291        -48.2604936

          40000000      0.0121287464         15.2247516    1.30940954e-006        -99.5202509       0.0045135159         79.2543835    1.02942938e-006        -99.5644182
                  1.30940955e-006        -99.5202519       0.0386780789        -62.6732771    1.41334404e-006        -99.2601818      0.00955708264         68.0233742
                    0.00451349764         79.2544844    1.41334404e-006        -99.2601817       0.0121314416         15.2910208    1.12142057e-006        -99.3412339
                  1.02942938e-006        -99.5644181      0.00955709653         68.0234206    1.12142056e-006        -99.3412326       0.0386746879        -62.7256814

          50000000      0.0128249046         18.0919702    1.62923359e-006        -100.514211      0.00563673524         78.6126116    1.28053155e-006        -100.589392
                  1.62923359e-006        -100.514212       0.0412979493        -76.3297693    1.75898658e-006        -100.256763       0.0116247957         64.3507721
                    0.00563673093           78.61262    1.75898658e-006        -100.256762       0.0128295941         18.1708281    1.39522768e-006        -100.364377
                  1.28053154e-006        -100.589392       0.0116248005         64.3507734    1.39522768e-006        -100.364376       0.0412924177        -76.3968553

          60000000       0.013570849          20.605403    1.95307054e-006        -101.645664      0.00675116401         77.8936869    1.53450518e-006        -101.743375
                  1.95307054e-006        -101.645665       0.0441428212        -89.4667538    2.10901727e-006        -101.384122       0.0135102848         60.7312586
                    0.00675116403         77.8936646    2.10901727e-006        -101.384122       0.0135780062         20.6941627    1.67219662e-006         -101.51117
                  1.53450519e-006        -101.743375       0.0135102838         60.7312549    1.67219662e-006         -101.51117        0.044135628         -89.548344

          70000000      0.0143805777         22.5616224    2.28162499e-006        -102.896744      0.00785719043         76.3593189    1.79189986e-006        -103.009201
                  2.28162499e-006        -102.896744       0.0472799589        -101.951782    2.46420114e-006        -102.627177       0.0152279691         56.8557782
                    0.00785719103         76.3593176    2.46420114e-006        -102.627177       0.0143903138         22.6592854    1.95293079e-006        -102.766667
                  1.79189986e-006        -103.009201       0.0152279692         56.8557753    1.95293079e-006        -102.766667       0.0472714162        -102.047582

          80000000      0.0152243558         24.2420698    2.61550058e-006        -104.262663       0.0089605304           74.79309    2.05323774e-006         -104.38296
                  2.61550058e-006        -104.262663       0.0506054956        -113.900581    2.82518631e-006         -103.98254       0.0167488943         53.1406844
                     0.0089605311         74.7930988     2.8251863e-006         -103.98254       0.0152369105         24.3465536    2.23799488e-006        -104.128042
                  2.05323774e-006         -104.38296       0.0167488957         53.1406817    2.23799488e-006        -104.128042       0.0505964535        -114.009669

          90000000      0.0161048592         25.5091241    2.95526431e-006        -105.745829       0.0100606225         73.2073312    2.31900711e-006        -105.868238
                  2.95526431e-006        -105.745829       0.0540404421        -125.563363    3.19258704e-006        -105.453529        0.018076442         49.6063444
                     0.0100606228         73.2073314    3.19258704e-006        -105.453529       0.0161203079         25.6191022    2.52792191e-006         -105.59959
                  2.31900711e-006        -105.868238       0.0180764424          49.606346     2.5279219e-006         -105.59959       0.0540321978        -125.684584

         100000000      0.0170082051         26.5723132    3.30014596e-006        -107.337455       0.0111580517         71.6064067    2.58867247e-006        -107.457117
                  3.30014596e-006        -107.337455       0.0575872486        -136.790366    3.56557141e-006         -107.03188       0.0191996446         46.3072902
                     0.0111580517         71.6064053    3.56557141e-006         -107.03188       0.0170266809         26.6865693    2.82212874e-006        -107.173821
                  2.58867247e-006        -107.457117       0.0191996437         46.3072883    2.82212874e-006         -107.17382       0.0575807945        -136.922069

         110000000      0.0179259103         27.2713841    3.64952891e-006         -109.02788       0.0122522311         69.9909806    2.86183248e-006        -109.140855
                  3.64952891e-006         -109.02788       0.0612403942        -147.584338    3.94348027e-006        -108.708213       0.0201154385         43.2898601
                     0.0122522314         69.9909782    3.94348027e-006        -108.708213       0.0179469914          27.390684     3.1201822e-006        -108.842229
                  2.86183249e-006        -109.140855       0.0201154376         43.2898592     3.1201822e-006        -108.842229       0.0612373099        -147.725527

         120000000      0.0188564493         27.8231515    4.00260382e-006         -110.82328        0.013342895         68.3659202    3.13788652e-006        -110.927297
                  4.00260382e-006         -110.82328       0.0648959126        -158.176445    4.32542466e-006        -110.489165       0.0208557329         40.5560639
                     0.0133428954         68.3659178    4.32542467e-006        -110.489165       0.0188806069         27.9466775    3.42141944e-006        -110.613003
                  3.13788652e-006        -110.927297       0.0208557319         40.5560638    3.42141945e-006        -110.613003       0.0648970364        -158.325139

         130000000      0.0197917608         28.1264691    4.35793174e-006        -112.711958       0.0144299151         66.7360619    3.41577044e-006        -112.805753
                  4.35793174e-006        -112.711958       0.0685548485         -168.50224    4.70984289e-006        -112.363138       0.0214332874          38.158156
                     0.0144299154         66.7360599    4.70984289e-006        -112.363138       0.0198191731         28.2536904     3.7246763e-006        -112.475538
                  3.41577044e-006        -112.805753       0.0214332864         38.1581566     3.7246763e-006        -112.475538       0.0685606995         -168.65646

         140000000      0.0207361883         28.3247065    4.71303266e-006        -114.680562       0.0155140738         65.1014419    3.69359916e-006        -114.763503
                  4.71303266e-006        -114.680562       0.0720481161         -178.47809    5.09404732e-006        -114.316796       0.0218591141         36.1375194
                     0.0155140741         65.1014403    5.09404732e-006        -114.316796       0.0207670099         28.4548794    4.02789399e-006        -114.417147
                  3.69359916e-006        -114.763503       0.0218591133         36.1375205    4.02789399e-006        -114.417147       0.0720585688        -178.636215

         150000000      0.0216758958         28.3315961    5.06675661e-006        -116.718569       0.0165947774         63.4637261    3.97048136e-006        -116.790945
                   5.0667566e-006        -116.718569       0.0754512073         171.789726    5.47678719e-006         -116.33969       0.0221732674         34.4903745
                     0.0165947777          63.463725    5.47678719e-006         -116.33969       0.0217101628         28.4645655    4.33009653e-006        -116.428284
                  3.97048136e-006        -116.790945       0.0221732667         34.4903761    4.33009653e-006        -116.428284       0.0754661475         171.629495

         160000000      0.0226215552         28.2605438    5.41711112e-006        -118.815001       0.0176727658         61.8230526    4.24488698e-006        -118.877836
                  5.41711112e-006        -118.815001       0.0787232095         162.282946    5.85590107e-006         -118.42085       0.0224085599         33.2568421
                     0.0176727661         61.8230518    5.85590107e-006         -118.42085       0.0226593294         28.3958955    4.62961125e-006        -118.498715
                  4.24488698e-006        -118.877836       0.0224085594         33.2568441    4.62961126e-006        -118.498715       0.0787421866           162.1224

         170000000       0.023557607         28.0423639    5.76140219e-006        -120.950558       0.0187473801         60.1804094     4.5147425e-006        -121.005137
                  5.76140219e-006        -120.950558       0.0816457333         153.062074    6.22846749e-006        -120.540937       0.0225894221          32.467391
                     0.0187473803         60.1804089    6.22846749e-006        -120.540937       0.0235988998         28.1801668     4.9241718e-006        -120.609394
                   4.5147425e-006        -121.005137       0.0225894217         32.4673932    4.92417181e-006        -120.609394       0.0816676965         152.902429

         180000000      0.0244970789         27.7649537    6.09857427e-006        -123.116645       0.0198192861         58.5357857    4.77918868e-006        -123.164769
                  6.09857427e-006        -123.116645       0.0843574593          144.03374    6.59333826e-006         -122.69137       0.0227675346         32.0820375
                     0.0198192862         58.5357853    6.59333826e-006         -122.69137       0.0245419444         27.9049767    5.21283759e-006        -122.752249
                  4.77918869e-006        -123.164769       0.0227675345         32.0820398    5.21283759e-006        -122.752249       0.0843811588         143.876697

         190000000       0.025426759         27.3746496     6.4268839e-006        -125.295609       0.0208879529          56.890771    5.03686532e-006        -125.339548
                   6.4268839e-006        -125.295609       0.0867641817         135.237658    6.94862141e-006         -124.85446       0.0229878291         32.0963022
                      0.020887953         56.8907708    6.94862141e-006         -124.85446       0.0254751921         27.5169601    5.49412061e-006        -124.910078
                  5.03686532e-006        -125.339548       0.0229878292         32.0963044    5.49412061e-006        -124.910078       0.0867882016         135.084653

         200000000      0.0263579051         26.9385041    6.74393936e-006        -127.472518       0.0219538644         55.2443807    5.28591219e-006        -127.514592
                  6.74393935e-006        -127.472518       0.0886705581         126.640541    7.29172569e-006        -127.015201       0.0232835292          32.487328
                     0.0219538645         55.2443806     7.2917257e-006        -127.015201       0.0264099707         27.0829395      5.765989e-006        -127.067953
                   5.2859122e-006        -127.514592       0.0232835295           32.48733      5.765989e-006        -127.067953       0.0886929555         126.492686

         210000000       0.027273691          26.416038    7.04970529e-006        -129.634868       0.0230164163         53.5969084    5.52623873e-006        -129.677684
                  7.04970529e-006        -129.634868       0.0902106907         118.235115     7.6226091e-006        -129.161094       0.0237031526         33.1394307
                     0.0230164163         53.5969084    7.62260911e-006        -129.161094       0.0273294573         26.5627135    6.02834155e-006        -129.213666
                  5.52623873e-006        -129.677684       0.0237031531         33.1394323    6.02834155e-006        -129.213666       0.0902293761         118.093869

         220000000       0.028189424         25.8571446    7.34322019e-006        -131.769079       0.0240761875         51.9484584    5.75706593e-006        -131.815612
                  7.34322019e-006        -131.769079       0.0913150795         110.032964    7.94023255e-006        -131.278506        0.024288454         33.9668116
                     0.0240761875         51.9484584    7.94023255e-006        -131.278506       0.0282489619         26.0059175    6.28032842e-006        -131.333961
                  5.75706593e-006        -131.815612       0.0242884546         33.9668127    6.28032842e-006        -131.333961       0.0913276201         109.899764

         230000000      0.0290919297         25.2272515    7.62310222e-006        -133.857469       0.0251326513         50.3001528    5.97731354e-006        -133.910704
                  7.62310222e-006        -133.857469       0.0917457394         102.003152    8.24310295e-006        -133.349668       0.0250606194         34.8870166
                     0.0251326513         50.3001529    8.24310295e-006        -133.349668       0.0291552653         25.3781771    6.52077104e-006        -133.411112
                  5.97731354e-006        -133.910704       0.0250606201         34.8870173    6.52077104e-006        -133.411113       0.0917497472         101.879089

         240000000      0.0299931979          24.568012    7.89055623e-006        -135.897781         0.02618628         48.6511349    6.18781334e-006        -135.960713
                  7.89055623e-006        -135.897781       0.0917393428         94.1236464    8.53252588e-006        -135.372341         0.02603541         35.7271886
                       0.02618628         48.6511349    8.53252587e-006        -135.372341       0.0300604002         24.7209539    6.75057831e-006         -135.44288
                  6.18781334e-006        -135.960713       0.0260354107         35.7271888    6.75057831e-006         -135.44288       0.0917323705         94.0104637

         250000000      0.0308794694         23.8527176    8.14602948e-006        -137.867843       0.0272365381         47.0020607    6.38887542e-006        -137.944062
                  8.14602949e-006        -137.867843       0.0910714709          86.479716    8.80899918e-006        -137.324296       0.0272374836         36.3988374
                     0.0272365381         47.0020608    8.80899918e-006        -137.324296       0.0309505859          24.007719    6.97009545e-006        -137.407644
                  6.38887542e-006        -137.944062       0.0272374843         36.3988372    6.97009544e-006        -137.407644       0.0910507078         86.3789512

         260000000      0.0317635345         23.1132473     8.3898823e-006        -139.765833       0.0282839183         45.3524567    6.58071417e-006        -139.858463
                   8.3898823e-006        -139.765833       0.0897643911         78.9723938    9.07291963e-006        -139.203675       0.0286431218         36.8145872
                     0.0282839183         45.3524568    9.07291963e-006        -139.203675       0.0318386266         23.2701798     7.1795605e-006        -139.303087
                  6.58071416e-006        -139.858463       0.0286431224         36.8145867    7.17956049e-006        -139.303087       0.0897275334         78.8859136

         270000000      0.0326320328         22.3279513    8.62392379e-006        -141.588248       0.0293278927          43.702825    6.76463982e-006        -141.700112
                  8.62392379e-006        -141.588248       0.0878971657         71.5921831    9.32625365e-006        -141.006983       0.0302271766         36.9011019
                     0.0293278927         43.7028251    9.32625365e-006        -141.006983       0.0327111469         22.4868476    7.38040839e-006        -141.125407
                  6.76463982e-006        -141.700112       0.0302271771         36.9011011    7.38040839e-006        -141.125407        0.087842175         71.5222944

         280000000      0.0334975057         21.5223617     8.8509315e-006        -143.312879       0.0303689482         42.0527909    6.94273254e-006        -143.447662
                   8.8509315e-006        -143.312879        0.085197004         64.5173008    9.57204266e-006        -142.712009        0.032005001         36.6188175
                     0.0303689481          42.052791    9.57204265e-006        -142.712009       0.0335806934         21.6831057    7.57492934e-006        -142.853245
                  6.94273254e-006        -143.447662       0.0320050013         36.6188166    7.57492933e-006        -142.853245        0.085121389          64.466596

