! Created Tue Feb 26 10:09:59 2019
# hz S ma R 50
! 4 Port Network Data from SP1.SP block
! freq  magS11  angS11  magS12  angS12  magS13  angS13  magS14  angS14  
!       magS21  angS21  magS22  angS22  magS23  angS23  magS24  angS24  
!       magS31  angS31  magS32  angS32  magS33  angS33  magS34  angS34  
!       magS41  angS41  magS42  angS42  magS43  angS43  magS44  angS44  
!     
                 0      0.0245227433        -24.0160227    1.15934739e-005        -113.609007      0.00134801532         68.7857782    1.49067821e-005        -156.238894
                    1.159346e-005         -113.60881       0.0321500969        -17.6731531    8.27029103e-006        -124.870597      0.00129712918         77.4613175
                    0.00134802397         68.7837467    8.27076857e-006        -124.876491       0.0244404126        -24.1353727     9.0913048e-006        -105.344551
                  1.49067705e-005        -156.238869      0.00129711963         77.4630571    9.09121616e-006        -105.341435       0.0329218338        -17.2713079

          10000000      0.0249318206        -21.7248525    7.54749163e-005        -105.246053      0.00253362344          75.328243    8.97400086e-005        -104.917459
                  7.54749163e-005        -105.246053       0.0331095272        -16.8913789    5.87557658e-005        -103.664412      0.00253352946          76.056824
                    0.00253362344          75.328243    5.87557658e-005        -103.664412       0.0249535284        -21.8323532    7.33467048e-005        -103.941004
                  8.97400086e-005        -104.917459      0.00253352947         76.0568237    7.33467048e-005        -103.941004       0.0331112186        -16.9056226

          20000000      0.0280230628        -40.9427556     0.000145574616        -108.592975      0.00490671363         69.5062282      0.00017330064        -108.357164
                   0.000145574599        -108.592985        0.034657941        -32.9854101     0.000113643623        -107.765096      0.00496309273         74.4082344
                    0.00490691422         69.5122326     0.000113643609         -107.76509       0.0280949615        -41.0847581     0.000141657166        -107.851399
                   0.000173300616        -108.357154      0.00496331924         74.4051536     0.000141657183        -107.851398       0.0346853311        -33.0090605

          30000000      0.0325136365        -56.5813789     0.000214846829        -113.632965      0.00718416415         62.2856506      0.00025592498         -113.36163
                   0.000214846828        -113.632965       0.0364546373        -48.2212576     0.000167876989        -113.113547      0.00732172931         71.2943645
                    0.00718419822         62.2856669     0.000167876991        -113.113546       0.0326142196        -56.7793606     0.000209260315        -113.087231
                   0.000255924981        -113.361629      0.00732173835         71.2941738     0.000209260315        -113.087232       0.0364544291        -48.2604936

          40000000      0.0378636033        -69.3198049     0.000284003523        -119.173317      0.00933635799         54.6546759     0.000338540622        -118.850594
                   0.000284003527        -119.173318       0.0386780789        -62.6732771      0.00022198334         -118.83352      0.00955708264         68.0233742
                    0.00933633273         54.6547536     0.000221983338         -118.83352       0.0380062733         -69.518343     0.000276821694        -118.728555
                   0.000338540621        -118.850594      0.00955709653         68.0234206     0.000276821692        -118.728554       0.0386746879        -62.7256814

          50000000      0.0437486723        -79.9248666      0.00035340498        -124.957039        0.011335415         46.8125012     0.000421645172        -124.583697
                   0.000353404981        -124.957039       0.0412979493        -76.3297693     0.000276243288        -124.739072       0.0116247957         64.3507721
                     0.0113354109         46.8125308     0.000276243288        -124.739072       0.0439294055         -80.115145     0.000344704132        -124.577805
                   0.000421645171        -124.583697       0.0116248005         64.3507734     0.000344704131        -124.577804       0.0412924177        -76.3968553

          60000000      0.0498693224        -89.2138977     0.000423375562        -130.899582       0.0131564984         38.8266169     0.000505668537        -130.484181
                   0.000423375563        -130.899582       0.0441428212        -89.4667538     0.000330910946        -130.771525       0.0135102848         60.7312586
                     0.0131564979         38.8266032     0.000330910947        -130.771525       0.0500812314        -89.3915402     0.000413224118        -130.571477
                   0.000505668538        -130.484181       0.0135102838         60.7312549     0.000413224116        -130.571476        0.044135628         -89.548344

          70000000      0.0561130083        -97.4813061      0.00049401655        -136.959643       0.0147733183         30.7121606     0.000590742358        -136.514591
                    0.00049401655        -136.959643       0.0472799589        -101.951782      0.00038606908        -136.901384       0.0152279691         56.8557782
                     0.0147733177         30.7121588      0.00038606908        -136.901384       0.0563478763        -97.6450351     0.000482477602        -136.677726
                   0.000590742359        -136.514591       0.0152279692         56.8557753     0.000482477602        -136.677726       0.0472714162        -102.047582

          80000000      0.0623434763        -105.040065     0.000565434155        -143.119907       0.0161647596         22.4656492     0.000676975757        -142.659069
                   0.000565434154        -143.119907       0.0506054956        -113.900581     0.000441805494        -143.117539       0.0167488943         53.1406844
                     0.0161647603         22.4656556     0.000441805494        -143.117539       0.0625923604        -105.189538     0.000552548596        -142.883538
                   0.000676975756        -142.659069       0.0167488957         53.1406817     0.000552548597        -142.883538       0.0505964535        -114.009669

          90000000      0.0684133225        -112.264676     0.000637804318        -149.386007       0.0173270415         14.0861535     0.000764561964        -148.923739
                   0.000637804319        -149.386007       0.0540404421        -125.563363     0.000498261339        -149.429175        0.018076442         49.6063444
                     0.0173270409         14.0861543     0.000498261338        -149.429175       0.0686670859        -112.399132     0.000623586196        -149.196121
                   0.000764561963        -148.923739       0.0180764424          49.606346     0.000623586196        -149.196121       0.0540321978        -125.684584

         100000000      0.0742690642        -119.102979     0.000710956915        -155.741555       0.0182408039         5.53389648     0.000853235769         -155.29085
                   0.000710956915        -155.741555       0.0575872486        -136.790366     0.000555314168        -155.822434       0.0191996446         46.3072902
                     0.0182408042         5.53389489     0.000555314167        -155.822434       0.0745178518        -119.222276     0.000695395711         -155.59971
                   0.000853235769         -155.29085       0.0191996437         46.3072883     0.000695395711         -155.59971       0.0575807945        -136.922069

         110000000      0.0798302683        -125.679166     0.000784900309        -162.178333       0.0188952457        -3.21558734     0.000942894032        -161.749189
                   0.000784900309        -162.178333       0.0612403942        -147.584338       0.0006129586        -162.290488       0.0201154385         43.2898601
                     0.0188952456        -3.21558884       0.0006129586        -162.290488       0.0800648309        -125.785481     0.000767926259        -162.085275
                   0.000942894032        -161.749189       0.0201154376         43.2898592     0.000767926259        -162.085275       0.0612373099        -147.725527

         120000000      0.0850104362        -132.120881      0.00085940383        -168.709383       0.0193106541         -12.214989      0.00103327968        -168.311749
                   0.000859403829        -168.709383       0.0648959126        -158.176445     0.000671047343        -168.847907       0.0208557329         40.5560639
                     0.0193106537        -12.2149898     0.000671047343        -168.847907       0.0852206236        -132.212229     0.000840961197        -168.665259
                    0.00103327968        -168.311749       0.0208557319         40.5560638     0.000840961198        -168.665259       0.0648970364        -158.325139

         130000000      0.0896747771        -138.437785     0.000934191721        -175.324623       0.0194922512        -21.5331766      0.00112400125        -174.966084
                   0.000934191721        -175.324623       0.0685548485         -168.50224     0.000729376772        -175.485913       0.0214332874          38.158156
                     0.0194922508        -21.5331767     0.000729376772        -175.485913       0.0898505875        -138.512628     0.000914203309        -175.328715
                    0.00112400125        -174.966084       0.0214332864         38.1581566     0.000914203309        -175.328715       0.0685606995         -168.65646

         140000000      0.0938408332        -144.616588      0.00100879955         177.997638       0.0194453024        -31.2408717      0.00121439656         178.311487
                    0.00100879955         177.997638       0.0720481161         -178.47809       0.0007875908         177.815855       0.0218591141         36.1375194
                     0.0194453021        -31.2408713       0.0007875908         177.815855       0.0939726456        -144.673627     0.000987165367          177.94663
                    0.00121439656         178.311487       0.0218591133         36.1375205     0.000987165368          177.94663       0.0720585688        -178.636215

         150000000        0.09748847        -150.729126      0.00108301374         171.255374       0.0192078862        -41.4045375      0.00130418337         171.520791
                    0.00108301374         171.255374       0.0754512073         171.789726     0.000845528479         171.054449       0.0221732674         34.4903745
                      0.019207886        -41.4045369      0.00084552848         171.054449       0.0975670153        -150.767045        0.001059628          171.15974
                    0.00130418337         171.520791       0.0221732667         34.4903761        0.001059628          171.15974       0.0754661475         171.629495

         160000000       0.100494341         -156.79007      0.00115644994         164.458971       0.0188133479        -52.1484509      0.00139284823         164.674582
                    0.00115644993         164.458971       0.0787232095         162.282946      0.00090289667         164.239726       0.0224085599         33.2568421
                     0.0188133478        -52.1484502      0.00090289667         164.239726         0.10051088        -156.807583      0.00113120165         164.322113
                    0.00139284823         164.674582       0.0224085594         33.2568441      0.00113120165         164.322113       0.0787421865           162.1224

         170000000        0.10281294         -162.77536      0.00122861753         157.632702       0.0182979367        -63.6081756      0.00147971465         157.798772
                    0.00122861753         157.632702       0.0816457333         153.062074     0.000959315182         157.395337       0.0225894221          32.467391
                     0.0182979367        -63.6081749     0.000959315183         157.395337        0.102759537        -162.771167       0.0012013883         157.458611
                    0.00147971465         157.798772       0.0225894217         32.4673932       0.0012013883         157.458611       0.0816676965         152.902429

         180000000       0.104509132        -168.726437      0.00129929022         150.776747       0.0177305564        -75.8726794      0.00156451266         150.894916
                    0.00129929022         150.776747       0.0843574593          144.03374       0.0010146072         150.520825       0.0227675346         32.0820375
                     0.0177305565        -75.8726789       0.0010146072         150.520825        0.104378528        -168.699186      0.00126997575         150.569988
                    0.00156451266         150.894916       0.0227675345         32.0820398      0.00126997575         150.569988       0.0843811588         143.876697

         190000000       0.105483578        -174.663484      0.00136812008         143.906028       0.0171865725        -89.0701386      0.00164679612          143.98009
                    0.00136812008         143.906028       0.0867641817         135.237658      0.00106850405         143.630969       0.0229878291         32.0963022
                     0.0171865726        -89.0701381      0.00106850405         143.630969        0.105269364        -174.611702        0.001336629         143.672084
                    0.00164679612          143.98009       0.0229878292         32.0963044        0.001336629         143.672084       0.0867882016         135.084653

         200000000       0.105667885         179.445585      0.00143469576         137.041097       0.0167475578        -103.278184      0.00172601035         137.075932
                    0.00143469576         137.041097       0.0886705581         126.640541      0.00112068401         136.745985       0.0232835292          32.487328
                     0.0167475578        -103.278184      0.00112068401         136.745985        0.105364858         179.523629      0.00140094669         136.785795
                    0.00172601035         137.075932       0.0232835295           32.48733      0.00140094669         136.785795       0.0886929555         126.492686

         210000000       0.105181325         173.571543      0.00149893754          130.18611       0.0165121643        -118.371562      0.00180209871         130.187494
                    0.00149893754          130.18611       0.0902106907         118.235115      0.00117107813         129.869547       0.0237031526         33.1394307
                     0.0165121643        -118.371562      0.00117107813         129.869547        0.104785277         173.677592      0.00146287984         129.915426
                    0.00180209871         130.187494       0.0237031531         33.1394323      0.00146287984         129.915426       0.0902293761         118.093869

         220000000       0.103945797         167.688899      0.00156064469         123.354012       0.0165764036        -134.126004      0.00187483051         123.329729
                    0.00156064469         123.354012       0.0913150795         110.032964      0.00121952985         123.014623        0.024288454         33.9668115
                     0.0165764036        -134.126004      0.00121952985         123.014623        0.103453558         167.824934       0.0015222601         123.074599
                    0.00187483051         123.329729       0.0242884546         33.9668127       0.0015222601         123.074599       0.0913276201         109.899764

         230000000       0.101878783         161.828765      0.00161959763         116.565705       0.0170116476        -150.177708      0.00194390807         116.524454
                    0.00161959763         116.565705       0.0917457394         102.003152      0.00126586425         116.201948       0.0250606194         34.8870166
                     0.0170116476        -150.177708      0.00126586425         116.201948        0.101288711         161.997405      0.00157889141         116.284343
                    0.00194390807         116.524454       0.0250606201         34.8870173      0.00157889141         116.284343       0.0917497472         101.879089

         240000000      0.0991867428         155.983272      0.00167592917         109.818724       0.0178368973        -165.989782      0.00200957566         109.768922
                    0.00167592917         109.818724       0.0917393428         94.1236464      0.00131016616         109.428523         0.02603541         35.7271886
                     0.0178368973        -165.989782      0.00131016616         109.428523       0.0984985554         156.187104      0.00163294974         109.541553
                    0.00200957566         109.768922       0.0260354107         35.7271888      0.00163294974         109.541553       0.0917323705         94.0104637

         250000000      0.0956782654         150.074381      0.00172968597         103.132748       0.0190649645         178.825648      0.00207195122         103.086336
                    0.00172968597         103.132748       0.0910714709          86.479716      0.00135248212         102.714524       0.0272374836         36.3988374
                     0.0190649645         178.825648      0.00135248212         102.714524       0.0948923151         150.316539      0.00168453676         102.866921
                    0.00207195122         103.086336       0.0272374843         36.3988372      0.00168453676         102.866921       0.0910507078         86.3789512

         260000000      0.0914688308         144.176609      0.00178094915         96.5137605       0.0206352289         164.503014      0.00213114898         96.4810603
                    0.00178094915         96.5137606       0.0897643911         78.9723938      0.00139285051          96.065403       0.0286431218         36.8145872
                     0.0206352289         164.503014      0.00139285051         96.0654029       0.0905876474         144.461168      0.00173376074         96.2651153
                    0.00213114898         96.4810603       0.0286431224         36.8145867      0.00173376074         96.2651153       0.0897275334         78.8859136

         270000000      0.0866902496         138.307203      0.00182999104         89.9641955       0.0224711351          151.11744      0.00218757097         89.9548798
                    0.00182999104         89.9641955       0.0878971657         71.5921831      0.00143145882         89.4834903       0.0302271766         36.9011019
                     0.0224711351          151.11744      0.00143145882         89.4834903       0.0857181893         138.638948      0.00178093059         89.7375039
                    0.00218757096         89.9548798       0.0302271771         36.9011011      0.00178093059         89.7375039        0.087842175         71.5222944

         280000000      0.0810473616         132.262906       0.0018772672         83.5033746       0.0245427882          138.66356      0.00224195677         83.5323022
                     0.0018772672         83.5033746        0.085197004         64.5173008      0.00146869644         82.9889313        0.032005001         36.6188175
                     0.0245427882          138.66356      0.00146869644         82.9889313       0.0799877508         132.647296       0.0018265953         83.3045381
                    0.00224195677         83.5323022       0.0320050013         36.6188166       0.0018265953         83.3045381        0.085121389          64.466596

