! Created Tue Feb 26 10:14:10 2019
# hz S ma R 50
! 4 Port Network Data from SP1.SP block
! freq  magS11  angS11  magS12  angS12  magS13  angS13  magS14  angS14  
!       magS21  angS21  magS22  angS22  magS23  angS23  magS24  angS24  
!       magS31  angS31  magS32  angS32  magS33  angS33  magS34  angS34  
!       magS41  angS41  magS42  angS42  magS43  angS43  magS44  angS44  
!     
                 0      0.0244245089        -24.1115721    9.74843154e-006        -121.355258      0.00133539306         72.3676638    7.98327512e-006        -123.568948
                  9.74843004e-006        -121.355242       0.0321500969        -17.6731531    8.03114068e-006        -123.507182      0.00129712918         77.4613175
                    0.00133539189         72.3680922    8.03113997e-006        -123.507167       0.0243764197         -24.132313    1.24969853e-005        -124.506271
                   7.9832682e-006        -123.568852      0.00129711963         77.4630571     1.2496988e-005        -124.506295       0.0329218338        -17.2713079

          10000000      0.0247011019        -20.1476484     3.8521622e-005        -106.494996      0.00345098295         75.7958852    3.53146125e-005        -106.392962
                   3.8521622e-005        -106.494996       0.0331095272        -16.8913789    3.54098361e-005        -106.359787      0.00253352946          76.056824
                    0.00345098297         75.7958852    3.54098361e-005        -106.359787       0.0247103255        -20.1460106    3.96375056e-005        -108.680761
                  3.53146125e-005        -106.392962      0.00253352947         76.0568237    3.96375055e-005        -108.680761       0.0331112186        -16.9056226

          20000000         0.0275977        -38.2330967    7.36054376e-005        -109.587506      0.00670603806         68.4234428    6.75294937e-005        -109.567223
                  7.36054291e-005        -109.587508        0.034657941        -32.9854101    6.77354624e-005        -109.521979      0.00496309273         74.4082344
                    0.00670614396         68.4238438    6.77354641e-005        -109.521969       0.0276287333        -38.2309012    7.55696084e-005        -110.734156
                  6.75294966e-005        -109.567214      0.00496331924         74.4051536    7.55696181e-005        -110.734155       0.0346853311        -33.0090605

          30000000      0.0318521605        -53.2196921     0.000108206668        -114.501879       0.0098393735         60.0271655    9.92777674e-005        -114.546954
                   0.000108206668        -114.501879       0.0364546373        -48.2212576    9.96176302e-005        -114.493011      0.00732172931         71.2943645
                    0.00983938119         60.0271309    9.96176313e-005         -114.49301       0.0318556625         -53.228185     0.000110999576        -115.250668
                  9.92777684e-005        -114.546953      0.00732173835         71.2941738     0.000110999576        -115.250669       0.0364544291        -48.2604936

          40000000      0.0370090284        -65.5305413     0.000142710677        -119.973554       0.0128205315         51.3002273     0.000130891513        -120.067195
                   0.000142710678        -119.973554       0.0386780789        -62.6732771     0.000131394484         -120.01026      0.00955708264         68.0233742
                     0.0128205282         51.3002351     0.000131394484         -120.01026       0.0370083838        -65.5437888     0.000146352482        -120.500933
                   0.000130891512        -120.067195      0.00955709653         68.0234206     0.000146352481        -120.500933       0.0386746879        -62.7256814

          50000000      0.0427897091        -75.8415133     0.000177295389        -125.716142       0.0156134735         42.3848818     0.000162531164        -125.843107
                   0.000177295389        -125.716143       0.0412979493        -76.3297693     0.000163229553        -125.789498       0.0116247957         64.3507721
                     0.0156134719         42.3848847     0.000163229553        -125.789498       0.0427855168        -75.8612974     0.000181814522        -126.099156
                   0.000162531164        -125.843107       0.0116248005         64.3507734     0.000181814521        -126.099156       0.0412924177        -76.3968553

          60000000      0.0489058179        -84.9085888     0.000212123491        -131.630323       0.0181890002           33.32417     0.000194350111         -131.77697
                   0.000212123491        -131.630323       0.0441428212        -89.4667538      0.00019527516        -131.733654       0.0135102848         60.7312586
                     0.0181889994         33.3241694      0.00019527516        -131.733654       0.0488977659        -84.9344061      0.00021755359        -131.909786
                   0.000194350111         -131.77697       0.0135102838         60.7312549      0.00021755359        -131.909786        0.044135628         -89.548344

          70000000      0.0552622928        -93.0033027     0.000247256274        -137.667878       0.0205178353         24.1206661     0.000226413048        -137.821967
                   0.000247256274        -137.667878       0.0472799589        -101.951782     0.000227590123        -137.795932       0.0152279691         56.8557782
                     0.0205178353         24.1206664     0.000227590123        -137.795932       0.0552502692        -93.0347871     0.000253634057        -137.868201
                   0.000226413048        -137.821967       0.0152279692         56.8557753     0.000253634058        -137.868201       0.0472714162        -102.047582

          80000000      0.0617264396        -100.427861     0.000282758545        -143.808601       0.0225781935         14.7627706     0.000258794048        -143.959467
                   0.000282758545        -143.808601       0.0506054956        -113.900581      0.00026023913        -143.957233       0.0167488943         53.1406844
                      0.022578194          14.762771      0.00026023913        -143.957233        0.061710396        -100.464768     0.000290125913        -143.945998
                   0.000258794048        -143.959467       0.0167488957         53.1406817     0.000290125913        -143.945998       0.0505964535        -114.009669

          90000000      0.0681355035        -107.549405     0.000318730044         -150.05705       0.0243676052         5.23918929     0.000291601905        -150.196077
                   0.000318730044         -150.05705       0.0540404421        -125.563363     0.000293319178        -150.223175        0.018076442         49.6063444
                     0.0243676052         5.23918877     0.000293319178        -150.223175       0.0681154522        -107.591563     0.000327137048        -150.143514
                   0.000291601905        -150.196077       0.0180764424          49.606346     0.000327137048        -150.143514       0.0540321978        -125.684584

         100000000      0.0744472305        -114.315823     0.000355101704        -156.397342       0.0258714638        -4.48747445     0.000324793869        -156.517934
                   0.000355101704        -156.397342       0.0575872486        -136.790366     0.000326772513        -156.578664       0.0191996446         46.3072902
                     0.0258714637        -4.48747472     0.000326772513        -156.578664        0.074423267        -114.363092       0.0003645979        -156.442333
                    0.00032479387        -156.517934       0.0191996437         46.3072883       0.0003645979        -156.442333       0.0575807945        -136.922069

         110000000      0.0805861325        -120.826041     0.000391909133        -162.823828       0.0270859945        -14.4469528       0.0003584168        -162.921044
                   0.000391909133        -162.823828       0.0612403942        -147.584338     0.000360631328          -163.0182       0.0201154385         43.2898601
                     0.0270859945        -14.4469531     0.000360631329          -163.0182       0.0805383791        -120.872249     0.000402570948        -162.836264
                   0.000358416801        -162.921044       0.0201154376         43.2898592     0.000402570948        -162.836264       0.0612373099        -147.725527

         120000000      0.0864373215        -127.251901     0.000429021362        -169.348518       0.0280419434        -24.6769487     0.000392378229        -169.420777
                   0.000429021362        -169.348518       0.0648959126        -158.176445     0.000394787995        -169.555475       0.0208557329         40.5560639
                     0.0280419434         -24.676949     0.000394787995        -169.555474       0.0863812529        -127.300257     0.000440895533         -169.33567
                   0.000392378229        -169.420777       0.0208557319         40.5560638     0.000440895533         -169.33567       0.0648970364        -158.325139

         130000000      0.0918538981        -133.585954     0.000466303203        -175.962313       0.0287595048        -35.2295274     0.000426572541        -176.010309
                   0.000466303203        -175.962313       0.0685548485         -168.50224     0.000429122929        -176.182124       0.0214332874          38.158156
                     0.0287595048        -35.2295277     0.000429122929        -176.182124       0.0917966003        -133.638646     0.000479426924         -175.93089
                   0.000426572541        -176.010309       0.0214332864         38.1581566     0.000479426924         -175.93089       0.0685606995         -168.65646

         140000000      0.0968448745         -139.81356     0.000503533233         177.355746        0.029262649        -46.1474975     0.000460808702         177.329171
                   0.000503533233         177.355746       0.0720481161         -178.47809      0.00046343293         177.122173       0.0218591141         36.1375194
                      0.029262649        -46.1474977      0.00046343293         177.122173       0.0967890785        -139.871883     0.000517938533         177.399989
                   0.000460808702         177.329171       0.0218591133         36.1375205     0.000517938533         177.399989       0.0720585688        -178.636215

         150000000       0.101374977        -146.004353     0.000540599975         170.602879       0.0296049301        -57.4598024     0.000494992392         170.592893
                   0.000540599975         170.602879       0.0754512073         171.789726     0.000497616626         170.354019       0.0221732674         34.4903745
                     0.0296049301        -57.4598026     0.000497616626         170.354019        0.101321254        -146.068979     0.000556309801         170.654706
                   0.000494992393         170.592893       0.0221732667         34.4903761     0.000556309801         170.654706       0.0754661475         171.629495

         160000000       0.105309367        -152.168511      0.00057730261         163.788825       0.0298417259        -69.2137345     0.000528944161         163.789166
                    0.00057730261         163.788825       0.0787232095         162.282946     0.000531489449         163.522874       0.0224085599         33.2568421
                     0.0298417259        -69.2137347      0.00053148945         163.522874        0.105257371        -152.239673     0.000594325008         163.843187
                   0.000528944162         163.789166       0.0224085594         33.2568441     0.000594325008         163.843187       0.0787421865           162.1224

         170000000       0.108592948         -158.28338     0.000613390945         156.937643       0.0300323937         -81.437291      0.00056243265         156.940869
                   0.000613390944         156.937643       0.0816457333         153.062074     0.000564818228         156.652628       0.0225894221          32.467391
                     0.0300323937        -81.4372912     0.000564818228         156.652628        0.108542076        -158.361062     0.000631722133         156.990052
                    0.00056243265         156.940869       0.0225894217         32.4673932     0.000631722133         156.990052       0.0816676965         152.902429

         180000000        0.11127425        -164.395315     0.000648734208          150.04918       0.0302532999        -94.1039759     0.000595329726          150.04672
                   0.000648734208          150.04918       0.0843574593          144.03374     0.000597479588         149.742793       0.0227675346         32.0820375
                     0.0302532999         -94.103976     0.000597479588         149.742793        0.111223854        -164.479393     0.000668358376         150.095636
                   0.000595329726          150.04672       0.0227675345         32.0820398     0.000668358376         150.095636       0.0843811588         143.876697

         190000000       0.113238085        -170.522123     0.000683138145         143.138336       0.0305852817        -107.184351     0.000627446913         143.121058
                   0.000683138144         143.138336       0.0867641817         135.237658     0.000629291818         142.808304       0.0229878291         32.0963022
                     0.0305852817        -107.184351     0.000629291818         142.808304        0.113187857        -170.612457     0.000704021268         143.174848
                   0.000627446914         143.121058       0.0229878292         32.0963044     0.000704021268         143.174848       0.0867882016         135.084653

         200000000       0.114406133        -176.633853     0.000716380526         136.226303       0.0311031848        -120.609671     0.000658563924         136.184634
                   0.000716380525         136.226304       0.0886705581         126.640541     0.000660044934         135.870387       0.0232835292          32.487328
                     0.0311031848        -120.609671     0.000660044934         135.870387        0.114355818        -176.730274     0.000738472779         136.249475
                   0.000658563924         136.184634       0.0232835295           32.48733     0.000738472779         136.249475       0.0886929555         126.492686

         210000000       0.114880949         177.232993     0.000748392374         129.317412       0.0318690106        -134.231855     0.000688593741         129.241334
                   0.000748392374         129.317412       0.0902106907         118.235115     0.000689669286         128.933172       0.0237031526         33.1394307
                     0.0318690106        -134.231855     0.000689669286         128.933172        0.114830571         177.130588     0.000771631979         129.324334
                   0.000688593741         129.241334       0.0237031531         33.1394323     0.000771631979         129.324334       0.0902293761         118.093869

         220000000       0.114568852         171.053857     0.000779045558         122.425179       0.0329396342        -147.906458     0.000717394911         122.304778
                   0.000779045558         122.425179       0.0913150795         110.032964      0.00071804203         122.010347        0.024288454         33.9668115
                     0.0329396342        -147.906459      0.00071804203         122.010347        0.114518604         170.945522     0.000803350609         122.413001
                   0.000717394911         122.304778       0.0242884546         33.9668127      0.00080335061         122.413001       0.0913276201         109.899764

         230000000       0.113379004         164.855399      0.00080820991         115.571898       0.0343503018        -161.490259       0.0007448194         115.397433
                    0.00080820991         115.571898       0.0917457394         102.003152     0.000745036287         115.124359       0.0250606194         34.8870166
                     0.0343503018        -161.490259     0.000745036287         115.124359        0.113329232         164.741154     0.000833483196         115.538479
                     0.0007448194         115.397433       0.0250606201         34.8870173     0.000833483196         115.538479       0.0917497472         101.879089

         240000000       0.111504924         158.616298     0.000835915501         108.756055       0.0360855541         -174.82155     0.000770855194          108.51799
                   0.000835915501         108.756056       0.0917393428         94.1236464     0.000770668685         108.273491         0.02603541         35.7271886
                     0.0360855541         -174.82155     0.000770668685         108.273491        0.111456078         158.496092      0.00086205416          108.70015
                   0.000770855194          108.51799       0.0260354107         35.7271888     0.000862054159          108.70015       0.0917323705         94.0104637

         250000000       0.108740677         152.264346     0.000862158873         101.998177       0.0381539371         172.202408     0.000795471053         101.688039
                   0.000862158874         101.998177       0.0910714709          86.479716     0.000794933913         101.478827       0.0272374836         36.3988374
                     0.0381539371         172.202408     0.000794933913         101.478827        0.108693285         152.138065      0.00088903236         101.918183
                   0.000795471053         101.688038       0.0272374843         36.3988372     0.000889032359         101.918183       0.0910507078         86.3789512

         260000000       0.105199147         145.852081     0.000886958751         95.3067504       0.0405046966         159.635281     0.000818639098         94.9168278
                   0.000886958751         95.3067505       0.0897643911         78.9723938     0.000817834716         94.7488214       0.0286431218         36.8145872
                     0.0405046966         159.635281     0.000817834716         94.7488214        0.105153805         145.719577     0.000914438915         95.2028063
                   0.000818639098         94.9168277       0.0286431224         36.8145867     0.000914438914         95.2028063       0.0897275334         78.8859136

         270000000       0.101003715         139.376389     0.000910425913         88.6863309       0.0430760903         147.496368     0.000840415914         88.2103679
                   0.000910425913         88.6863309       0.0878971657         71.5921831     0.000839459321         88.0882647       0.0302271766         36.9011019
                     0.0430760903         147.496368      0.00083945932         88.0882646         0.10096106         139.237456     0.000938387401         88.5596339
                   0.000840415913         88.2103679       0.0302271771         36.9011011     0.000938387401         88.5596339        0.087842175         71.5222944

         280000000      0.0958520193         132.645745       0.0009327655         82.1568782       0.0458558424         135.799532     0.000860970924         81.5908897
                     0.0009327655         82.1568782        0.085197004         64.5173008      0.00086000349         81.5180747        0.032005001         36.6188175
                     0.0458558424         135.799532     0.000860003489         81.5180747       0.0958127222         132.500071     0.000961041569          82.007997
                   0.000860970924         81.5908897       0.0320050013         36.6188166     0.000961041568          82.007997        0.085121389          64.466596

